Total; tran P (inv_wM3=5e-06) X,Total; tran P (inv_wM3=5e-06) Y,Total; tran P (inv_wM3=1e-05) X,Total; tran P (inv_wM3=1e-05) Y,Total; tran P (inv_wM3=1.5e-05) X,Total; tran P (inv_wM3=1.5e-05) Y,Total; tran P (inv_wM3=2e-05) X,Total; tran P (inv_wM3=2e-05) Y,Total; tran P (inv_wM3=2.5e-05) X,Total; tran P (inv_wM3=2.5e-05) Y,Total; tran P (inv_wM3=3e-05) X,Total; tran P (inv_wM3=3e-05) Y,Total; tran P (inv_wM3=3.5e-05) X,Total; tran P (inv_wM3=3.5e-05) Y,Total; tran P (inv_wM3=4e-05) X,Total; tran P (inv_wM3=4e-05) Y,Total; tran P (inv_wM3=4.5e-05) X,Total; tran P (inv_wM3=4.5e-05) Y,Total; tran P (inv_wM3=5e-05) X,Total; tran P (inv_wM3=5e-05) Y,/w_out (inv_wM3=5e-06) X,/w_out (inv_wM3=5e-06) Y,/w_out (inv_wM3=1e-05) X,/w_out (inv_wM3=1e-05) Y,/w_out (inv_wM3=1.5e-05) X,/w_out (inv_wM3=1.5e-05) Y,/w_out (inv_wM3=2e-05) X,/w_out (inv_wM3=2e-05) Y,/w_out (inv_wM3=2.5e-05) X,/w_out (inv_wM3=2.5e-05) Y,/w_out (inv_wM3=3e-05) X,/w_out (inv_wM3=3e-05) Y,/w_out (inv_wM3=3.5e-05) X,/w_out (inv_wM3=3.5e-05) Y,/w_out (inv_wM3=4e-05) X,/w_out (inv_wM3=4e-05) Y,/w_out (inv_wM3=4.5e-05) X,/w_out (inv_wM3=4.5e-05) Y,/w_out (inv_wM3=5e-05) X,/w_out (inv_wM3=5e-05) Y,frequency (inv_wM3=5e-06) X,frequency (inv_wM3=5e-06) Y,frequency (inv_wM3=1e-05) X,frequency (inv_wM3=1e-05) Y,frequency (inv_wM3=1.5e-05) X,frequency (inv_wM3=1.5e-05) Y,frequency (inv_wM3=2e-05) X,frequency (inv_wM3=2e-05) Y,frequency (inv_wM3=2.5e-05) X,frequency (inv_wM3=2.5e-05) Y,frequency (inv_wM3=3e-05) X,frequency (inv_wM3=3e-05) Y,frequency (inv_wM3=3.5e-05) X,frequency (inv_wM3=3.5e-05) Y,frequency (inv_wM3=4e-05) X,frequency (inv_wM3=4e-05) Y,frequency (inv_wM3=4.5e-05) X,frequency (inv_wM3=4.5e-05) Y
0,0.001720933871431755,0,0.001992993420251599,0,0.002111456541784945,0,0.00217657446866059,0,0.002217602600149115,0,0.002245846263820875,0,0.0022664946727919,0,0.002282259141924278,0,0.002294695097082427,0,0.002304759444413346,0,0.01642854036852051,0,0.001467627023700788,0,0.0001771985348259902,0,4.480508940740816e-05,0,1.849596998543026e-05,0,1.005763336913305e-05,0,6.453338360460308e-06,0,4.606084869590483e-06,0,3.534658227711916e-06,0,2.855754294206403e-06,2.585476973516482e-07,1873057.104030035,2.952796446725302e-07,1616543.27034795,3.349227486455641e-07,1415345.608972331,3.772046866499266e-07,1230307.076313364,4.338823220837833e-07,1077747.774911129,4.910668734325021e-07,960224.4692684672,5.340352106937393e-07,870710.2558996117,5.774818882648828e-07,798487.0614546963,6.177883278169257e-07,737286.5345689323
1.953125e-12,0.001720072437030968,1.953125e-12,0.001992458723308347,1.953125e-12,0.002111035322873525,1.953125e-12,0.002176226411388983,7.8125e-12,0.002216096198358012,7.8125e-12,0.00224452384713639,7.8125e-12,0.002265314365843726,7.8125e-12,0.00228119221185186,7.8125e-12,0.002293720933338292,1.953125e-12,0.002304645276630673,1.953125e-12,0.01626708504730315,1.953125e-12,0.001371625306265876,1.953125e-12,0.0001105218027767931,1.953125e-12,-3.885309863039664e-06,7.8125e-12,-0.0001595540689757344,7.8125e-12,-0.0001305927367325816,7.8125e-12,-0.0001077954710419575,7.8125e-12,-9.001798198420405e-05,7.8125e-12,-7.60713405707177e-05,1.953125e-12,-6.918609270143598e-06,7.924342499017111e-07,1884591.742470267,9.138835622681023e-07,1620428.420252194,1.041463959259197e-06,1417846.994358381,  ,  ,  ,  ,  ,  ,  ,  ,  ,  ,  ,  
5.859375000000001e-12,0.001718949425995924,5.859375000000001e-12,0.00199161007975751,5.859375000000001e-12,0.00211039481148403,5.859375000000001e-12,0.002175700643416892,2.34375e-11,0.002214417018319,2.34375e-11,0.002243063389659753,2.34375e-11,0.002264021703193857,2.34375e-11,0.002280032584683423,2.34375e-11,0.002292669420245701,5.859375000000001e-12,0.002304357410029654,5.859375000000001e-12,0.01603301802417724,5.859375000000001e-12,0.001206313305825568,5.859375000000001e-12,1.102102146443704e-05,5.859375000000001e-12,-7.579171312781902e-05,2.34375e-11,-0.0004362306135419945,2.34375e-11,-0.0003526743182673903,2.34375e-11,-0.0002899785071088122,2.34375e-11,-0.0002413218398291894,2.34375e-11,-0.0002040616074175399,5.859375000000001e-12,-3.178459910667424e-05,1.32305315131387e-06,1883635.167426103,  ,  ,  ,  ,  ,  ,  ,  ,  ,  ,  ,  ,  ,  ,  ,  
1.3671875e-11,0.001716922026199819,1.3671875e-11,0.001990153916931153,1.3671875e-11,0.002109244462946541,1.3671875e-11,0.002174758989605989,5.468750000000001e-11,0.00221136366008204,5.468750000000001e-11,0.002240416543586395,5.468750000000001e-11,0.00226168270746501,5.468750000000001e-11,0.002277937242361489,5.468750000000001e-11,0.002290772143867725,1.3671875e-11,0.002303906005594929,1.3671875e-11,0.0156396733436578,1.3671875e-11,0.0009353229260530625,1.3671875e-11,-0.0001871952205902837,1.3671875e-11,-0.0002211310564665063,5.468750000000001e-11,-0.0008007692538548656,5.468750000000001e-11,-0.0006476366044460532,5.468750000000001e-11,-0.0005304431942435048,5.468750000000001e-11,-0.0004402802464102801,5.468750000000001e-11,-0.0003706984418443303,1.3671875e-11,-6.861209816101248e-05,  ,  ,  ,  ,  ,  ,  ,  ,  ,  ,  ,  ,  ,  ,  ,  ,  ,  
2.530633965848617e-11,0.00171393489973142,2.9296875e-11,0.00198727522833863,2.9296875e-11,0.00210700482781067,2.9296875e-11,0.002172923548855177,8.521524735583699e-11,0.002208454451193917,8.605057826657367e-11,0.002237817657741864,8.681881205105325e-11,0.002259334917489445,8.753749909466803e-11,0.00227578966029577,8.82104586298979e-11,0.002288790768714466,2.9296875e-11,0.002303014433410037,2.530633965848617e-11,0.01504542036963691,2.9296875e-11,0.00042211383682777,2.9296875e-11,-0.000549937928508699,2.9296875e-11,-0.0004866496478967273,8.521524735583699e-11,-0.001151644794196202,8.605057826657367e-11,-0.0009204518523444321,8.681881205105325e-11,-0.0007616329821668768,8.753749909466803e-11,-0.0006346599581087994,8.82104586298979e-11,-0.000537781437539657,2.9296875e-11,-0.0001435829944789234,  ,  ,  ,  ,  ,  ,  ,  ,  ,  ,  ,  ,  ,  ,  ,  ,  ,  
4.85752689754585e-11,0.001708118194021405,6.009915726699581e-11,0.001981740130764861,6.0546875e-11,0.002102615172395866,6.0546875e-11,0.002169322390661343,1.462707420675109e-10,0.00220280959235289,1.48776734799721e-10,0.002232783748813501,1.510814361531597e-10,0.002254784159603083,1.532374972840041e-10,0.00227162941391283,1.552563758896937e-10,0.002284957261301873,6.0546875e-11,0.002301267243974261,4.85752689754585e-11,0.01393205393539407,6.009915726699581e-11,-0.000562560581438835,6.0546875e-11,-0.001238853181930868,6.0546875e-11,-0.0009816825581561003,1.462707420675109e-10,-0.001816700944164259,1.48776734799721e-10,-0.001458029117554887,1.510814361531597e-10,-0.001203415721075077,1.532374972840041e-10,-0.000984594868679415,1.552563758896937e-10,-0.0008324678483474433,6.0546875e-11,-0.0002912674562480387,  ,  ,  ,  ,  ,  ,  ,  ,  ,  ,  ,  ,  ,  ,  ,  ,  ,  
9.511312760940316e-11,0.001696996833769581,1.217037218009874e-10,0.001971156883117337,1.23046875e-10,0.002094170026628922,1.23046875e-10,0.002162370074228743,2.683817314908589e-10,0.002192100406711948,2.742290478660157e-10,0.002223215982005618,2.796066843573727e-10,0.002246123254999909,2.846374936626761e-10,0.002263710186666414,2.893482104092852e-10,0.002277656104905745,1.23046875e-10,0.002297918556551659,9.511312760940316e-11,0.01192104310928901,1.217037218009874e-10,-0.002322859300688666,1.23046875e-10,-0.002489125729351988,1.23046875e-10,-0.001904558543700609,2.683817314908589e-10,-0.002911541350646423,2.742290478660157e-10,-0.002338173387838078,2.796066843573727e-10,-0.001923663142040267,2.846374936626761e-10,-0.001595987237704573,2.893482104092852e-10,-0.001347028052294957,1.23046875e-10,-0.000550230258779155,  ,  ,  ,  ,  ,  ,  ,  ,  ,  ,  ,  ,  ,  ,  ,  ,  ,  
1.881888448772925e-10,0.001676560106531139,2.449128508689706e-10,0.001951664100497188,2.48046875e-10,0.002078409916738367,2.48046875e-10,0.002149297628153793,5.126037103375547e-10,0.00217235026392015,5.25133673998605e-10,0.002205423776328309,5.366571807657988e-10,0.002229903853276543,5.474374864200203e-10,0.002248779491399032,5.575318794484684e-10,0.002263800924150846,2.48046875e-10,0.002291586016725788,1.881888448772925e-10,0.008508770621966855,2.449128508689706e-10,-0.005224753577732885,2.48046875e-10,-0.004585899759117019,2.48046875e-10,-0.003455091709984837,5.126037103375547e-10,-0.004492208956698897,5.25133673998605e-10,-0.003604778123006378,5.366571807657988e-10,-0.002953720315418486,5.474374864200203e-10,-0.002447021367398718,5.575318794484684e-10,-0.002057682782802422,2.48046875e-10,-0.0009847819408391513,  ,  ,  ,  ,  ,  ,  ,  ,  ,  ,  ,  ,  ,  ,  ,  ,  ,  
3.743402794130711e-10,0.001641419755749569,4.913311090049371e-10,0.001917832657405539,4.98046875e-10,0.002050356305650934,4.98046875e-10,0.002125632552485256,1.001047668030946e-09,0.002137087610237082,1.026942926263784e-09,0.002173033336302482,1.050758173582651e-09,0.002199868938690668,1.06398970908347e-09,0.002221175025755169,1.066561052726989e-09,0.002238707912579899,4.98046875e-10,0.002279619239177816,3.743402794130711e-10,0.003709752648110101,4.913311090049371e-10,-0.009084558643987316,4.98046875e-10,-0.007491322502441929,4.98046875e-10,-0.005656639519393862,1.001047668030946e-09,-0.006063500860171935,1.026942926263784e-09,-0.004884346092286457,1.050758173582651e-09,-0.004004674276175428,1.06398970908347e-09,-0.00331251795257414,1.066561052726989e-09,-0.002768128013398442,4.98046875e-10,-0.00160627392970285,  ,  ,  ,  ,  ,  ,  ,  ,  ,  ,  ,  ,  ,  ,  ,  ,  ,  
7.466431484846285e-10,0.001586608975683391,9.693617002804975e-10,0.001865100042300447,9.980468750000001e-10,0.002003414331308775,9.980468750000001e-10,0.002084706200612184,1.647720808066914e-09,0.002096192084034707,1.661753351380194e-09,0.002136219923138486,1.677725716680829e-09,0.00216630080624624,1.685390412187433e-09,0.002190248566252347,1.684034720264158e-09,0.00220997647816807,9.772676230139368e-10,0.002257560837847729,7.466431484846285e-10,-0.0004978890644247512,9.693617002804975e-10,-0.01189201791800173,9.980468750000001e-10,-0.009970000033627658,9.980468750000001e-10,-0.007715423562585842,1.647720808066914e-09,-0.0063896337229757,1.661753351380194e-09,-0.005229156708833905,1.677725716680829e-09,-0.004336193247466816,1.685390412187433e-09,-0.003631734491706167,1.684034720264158e-09,-0.003073454931818662,9.772676230139368e-10,-0.002259490871972413,  ,  ,  ,  ,  ,  ,  ,  ,  ,  ,  ,  ,  ,  ,  ,  ,  ,  
1.205723397393648e-09,0.00153639381108502,1.528120449218507e-09,0.001816727816292014,1.639274429372348e-09,0.001954412603448356,1.653590669723934e-09,0.002039308099324835,2.46282222599885e-09,0.002052010251488349,2.471448864186916e-09,0.002095097790411335,2.486470403693252e-09,0.002127753781288825,2.493342609032731e-09,0.00215398022374522,2.490339113662625e-09,0.002175774201513363,1.557205954287735e-09,0.002231926825542522,1.205723397393648e-09,-0.0001793751974441307,1.528120449218507e-09,-0.01109437481474475,1.639274429372348e-09,-0.009736728269360929,1.653590669723934e-09,-0.007890124036118286,2.46282222599885e-09,-0.005716881405331174,2.471448864186916e-09,-0.004873554856946123,2.486470403693252e-09,-0.004167986955223693,2.493342609032731e-09,-0.003584920386398186,2.490339113662625e-09,-0.003104205228964449,1.557205954287735e-09,-0.002585427509451337,  ,  ,  ,  ,  ,  ,  ,  ,  ,  ,  ,  ,  ,  ,  ,  ,  ,  
1.766682570805952e-09,0.001490758099568915,2.239876230612594e-09,0.001767809266653968,2.449814051221275e-09,0.001904194378084636,2.484121749941004e-09,0.001991348535227202,3.533831792609135e-09,0.0020039165399009,3.542839890779877e-09,0.00204932678009499,3.56788545120901e-09,0.002083813121042694,3.589463809264879e-09,0.002111535109667329,3.603628678803621e-09,0.002134606648125816,2.31614606257926e-09,0.00220085521929147,1.766682570805952e-09,0.003236478891167119,2.239876230612594e-09,-0.008118945336671438,2.449814051221275e-09,-0.007645253147763605,2.484121749941004e-09,-0.006651913170467448,3.533831792609135e-09,-0.004368555531539359,3.542839890779877e-09,-0.003983436031535608,3.56788545120901e-09,-0.003574364579101365,3.589463809264879e-09,-0.003193489063061656,3.603628678803621e-09,-0.002853316408244472,2.31614606257926e-09,-0.002705283452673829,  ,  ,  ,  ,  ,  ,  ,  ,  ,  ,  ,  ,  ,  ,  ,  ,  ,  
2.474025010556466e-09,0.001449908089462818,3.135965769677834e-09,0.001720168521244974,3.499888640211279e-09,0.001852318223467798,3.557349579126873e-09,0.001940881723759577,5.178803296540125e-09,0.001945204098665125,5.204978999840962e-09,0.001992340455001522,5.281249085442635e-09,0.002027859691234959,5.361438669074457e-09,0.002056158041205191,5.431663977414062e-09,0.002079684817214256,3.341733079150144e-09,0.002163463420075361,2.474025010556466e-09,0.008392701598797443,3.135965769677834e-09,-0.00411724661372562,3.499888640211279e-09,-0.004617628143829593,3.557349579126873e-09,-0.004603557748076826,5.178803296540125e-09,-0.00226744875002508,5.204978999840962e-09,-0.002455608958851684,5.281249085442635e-09,-0.002417384360426284,5.361438669074457e-09,-0.00230647696529645,5.431663977414062e-09,-0.002169901412139514,3.341733079150144e-09,-0.002607647159424467,  ,  ,  ,  ,  ,  ,  ,  ,  ,  ,  ,  ,  ,  ,  ,  ,  ,  
3.451886593108533e-09,0.001415618919627517,4.404209321529544e-09,0.001675032168718394,4.969289584063122e-09,0.001799933219595618,5.197945239685736e-09,0.0018824818728721,7.846089836334625e-09,0.001876874862173622,5.914877224088974e-09,0.001971790343955842,8.170226996304873e-09,0.001957434977041742,8.350731735625688e-09,0.001986362760854215,8.535476289614874e-09,0.002009696899651326,5.09467401691703e-09,0.002110382051820144,3.451886593108533e-09,0.01479702432145779,4.404209321529544e-09,0.0004095322721254037,4.969289584063122e-09,-0.0007914628795481475,5.197945239685736e-09,-0.001504213329588991,7.846089836334625e-09,3.803222753362047e-05,5.914877224088974e-09,-0.001773482556794142,8.170226996304873e-09,-0.0002618328425392022,8.350731735625688e-09,-0.0005306447807484216,8.535476289614874e-09,-0.0007479128956247892,5.09467401691703e-09,-0.002155764233381144,  ,  ,  ,  ,  ,  ,  ,  ,  ,  ,  ,  ,  ,  ,  ,  ,  ,  
4.689888142244987e-09,0.0013910984470309,4.777354667432177e-09,0.001666285009489712,6.443561522204719e-09,0.001767315698206868,5.870954345241044e-09,0.001863695598450805,9.9322101947223e-09,0.001847010449479737,7.334673672584999e-09,0.001936349822057384,8.870275298730371e-09,0.001943047515792742,1.113441624619296e-08,0.001934213419666421,1.146221545365067e-08,0.001954468078848368,8.056465936149681e-09,0.002042434916252419,4.689888142244987e-09,0.02007824033092917,4.777354667432177e-09,0.001621055197124039,6.443561522204719e-09,0.001450589588278997,5.870954345241044e-09,-0.0004474202579345148,9.9322101947223e-09,0.001629964805398045,7.334673672584999e-09,-0.0003827667388043859,8.870275298730371e-09,3.169191341459373e-05,1.113441624619296e-08,0.0001571058601543097,1.146221545365067e-08,-1.059899938590899e-05,8.056465936149681e-09,-0.001144073837443625,  ,  ,  ,  ,  ,  ,  ,  ,  ,  ,  ,  ,  ,  ,  ,  ,  ,  
5.869665745888639e-09,0.001374111637349365,5.523645359237443e-09,0.001653221587556581,7.968574507960348e-09,0.001746496894212899,7.216972556351662e-09,0.001833612389019752,1.221060680198785e-08,0.001825187387124475,9.590668692897682e-09,0.001892448223389607,1.027037190358137e-08,0.001916777770257325,1.345487561749105e-08,0.001904516862841204,1.415517621080384e-08,0.001918520938108177,8.894605903152158e-09,0.002026607216578316,5.869665745888639e-09,0.02254274393021722,5.523645359237443e-09,0.003810975412012756,7.968574507960348e-09,0.002894136287847127,7.216972556351662e-09,0.0005851684467967399,1.221060680198785e-08,0.002582767865883849,9.590668692897682e-09,0.0004902955425092776,1.027037190358137e-08,0.0001558754040538789,1.345487561749105e-08,0.0005789488034758986,1.415517621080384e-08,0.0004760947507801703,8.894605903152158e-09,-0.0008024991893869844,  ,  ,  ,  ,  ,  ,  ,  ,  ,  ,  ,  ,  ,  ,  ,  ,  ,  
7.162915341313696e-09,0.001359331123293551,7.016226742847976e-09,0.00163332386930365,9.651306417696611e-09,0.001728182167902158,8.574948727500876e-09,0.001813104418200001,1.453542271722848e-08,0.00180786369618652,1.117056481175924e-08,0.001871720399941524,1.194622516763768e-08,0.001893879469733512,1.654405131038964e-08,0.001879926130621732,1.742303675432831e-08,0.00189276166572016,1.057088583715711e-08,0.001997202546004063,7.162915341313696e-09,0.02257428236298265,7.016226742847976e-09,0.006083407684272655,9.651306417696611e-09,0.003853659574994233,8.574948727500876e-09,0.001381228032801642,1.453542271722848e-08,0.002267588900874123,1.117056481175924e-08,0.0008857488651244037,1.194622516763768e-08,0.0005240312445940257,1.654405131038964e-08,0.001462659459575436,1.742303675432831e-08,0.00126033919153276,1.057088583715711e-08,-0.0001199375094313574,  ,  ,  ,  ,  ,  ,  ,  ,  ,  ,  ,  ,  ,  ,  ,  ,  ,  
8.399246853374945e-09,0.001349683465676441,8.235018400049682e-09,0.001618895398406663,1.140612140082123e-08,0.001712735779057924,1.008810534261776e-08,0.001796126472910331,1.669578859378726e-08,0.001797692853120832,1.381844488790656e-08,0.001848091530080436,1.374699577713829e-08,0.001876687316301461,1.936805957005361e-08,0.001863500638698567,2.021849659934541e-08,0.001876846684372897,1.248457768413431e-08,0.001964993624228619,8.399246853374945e-09,0.0210424986221315,8.235018400049682e-09,0.006216952515127891,1.140612140082123e-08,0.003508037843771594,1.008810534261776e-08,0.002597633001318129,1.669578859378726e-08,0.001630869996668937,1.381844488790656e-08,0.001989833770741637,1.374699577713829e-08,0.001329042191467614,1.936805957005361e-08,0.001368187292443882,2.021849659934541e-08,0.001233872909015572,1.248457768413431e-08,0.0001419253123160643,  ,  ,  ,  ,  ,  ,  ,  ,  ,  ,  ,  ,  ,  ,  ,  ,  ,  
9.817015160739046e-09,0.001345305028022538,9.785009779222544e-09,0.001603911136390676,1.311237626420684e-08,0.001701897337761514,1.221132640230062e-08,0.001777437125922776,1.937874878535825e-08,0.001800627930050887,1.641103306776819e-08,0.001830911793532297,1.5937587743279e-08,0.001860776781258515,2.205339717938833e-08,0.001857752440376885,2.316619772657802e-08,0.001869196765650082,1.431818234138027e-08,0.001938605896813239,9.817015160739046e-09,0.01932601071245603,9.785009779222544e-09,0.005490075739493948,1.311237626420684e-08,0.002537381188103378,1.221132640230062e-08,0.003000138451183041,1.937874878535825e-08,0.00103505390724324,1.641103306776819e-08,0.001872256427873506,1.5937587743279e-08,0.001701409267374632,2.205339717938833e-08,0.001035288525129742,2.316619772657802e-08,0.0009525110818650119,1.431818234138027e-08,0.0001221347900818038,  ,  ,  ,  ,  ,  ,  ,  ,  ,  ,  ,  ,  ,  ,  ,  ,  ,  
1.170501886312807e-08,0.001344688199213937,1.125231261730946e-08,0.001593957126283757,1.51904837875929e-08,0.001699646550652497,1.402372501806752e-08,0.001764781508745133,2.189331596695289e-08,0.001809589102632863,1.870155454349654e-08,0.001823505401095995,1.827475212144903e-08,0.001847248263939978,2.525976659645231e-08,0.001867687521199916,2.648492072776598e-08,0.001879550624320387,1.702775220266487e-08,0.001913141011026936,1.170501886312807e-08,0.01804463063504711,1.125231261730946e-08,0.004290789437436542,1.51904837875929e-08,0.001634025658471738,1.402372501806752e-08,0.002356360466039482,2.189331596695289e-08,0.0007356563633873829,1.870155454349654e-08,0.001360528734920043,1.827475212144903e-08,0.001493564801082762,2.525976659645231e-08,0.0007009465094476685,2.648492072776598e-08,0.0006591515981732271,1.702775220266487e-08,0.0007105482766462791,  ,  ,  ,  ,  ,  ,  ,  ,  ,  ,  ,  ,  ,  ,  ,  ,  ,  
