/w_out X,/w_out Y,/net1 X,/net1 Y
8.500000000000001e-08,2.997292838717995,8.500000000000001e-08,0.005868064158874549
8.51e-08,2.997861373758685,8.51e-08,0.005977544921053682
8.52e-08,2.998429908799374,8.52e-08,0.006087025683232814
8.529999999999999e-08,2.998998443840063,8.529999999999999e-08,0.006196506445411947
8.539999999999998e-08,2.999566978880753,8.539999999999998e-08,0.00630598720759108
8.549999999999998e-08,3.000135513921442,8.549999999999998e-08,0.006415467969770212
8.559999999999997e-08,3.000704048962131,8.559999999999997e-08,0.006524948731949345
8.569999999999997e-08,3.00127258400282,8.569999999999997e-08,0.006634429494128478
8.579999999999996e-08,3.001841119043509,8.579999999999996e-08,0.006743910256307611
8.589999999999996e-08,3.002409654084199,8.589999999999996e-08,0.006853391018486744
8.599999999999995e-08,3.002978189124888,8.599999999999995e-08,0.006962871780665876
8.609999999999994e-08,3.004033349839966,8.609999999999994e-08,0.007131522197251424
8.619999999999994e-08,3.005384989173567,8.619999999999994e-08,0.007336221960018569
8.629999999999993e-08,3.006736628507168,8.629999999999993e-08,0.007540921722785712
8.639999999999993e-08,3.008088267840769,8.639999999999993e-08,0.007745621485552856
8.649999999999992e-08,3.00943990717437,8.649999999999992e-08,0.00795032124832
8.659999999999992e-08,3.010791546507971,8.659999999999992e-08,0.008155021011087145
8.669999999999991e-08,3.012143185841571,8.669999999999991e-08,0.008359720773854289
8.67999999999999e-08,3.013494825175172,8.67999999999999e-08,0.008564420536621433
8.68999999999999e-08,3.01514673249319,8.68999999999999e-08,0.008759928494995555
8.699999999999989e-08,3.017181987626825,8.699999999999989e-08,0.008943701408947652
8.709999999999989e-08,3.019217242760459,8.709999999999989e-08,0.009127474322899749
8.719999999999988e-08,3.021252497894093,8.719999999999988e-08,0.009311247236851845
8.729999999999988e-08,3.023287753027728,8.729999999999988e-08,0.009495020150803942
8.739999999999987e-08,3.025323008161362,8.739999999999987e-08,0.009678793064756039
8.749999999999986e-08,3.027358263294996,8.749999999999986e-08,0.009862565978708136
8.759999999999986e-08,3.029393518428631,8.759999999999986e-08,0.01004633889266023
8.769999999999985e-08,3.031428773562265,8.769999999999985e-08,0.01023011180661233
8.779999999999985e-08,3.033464028695899,8.779999999999985e-08,0.01041388472056443
8.789999999999984e-08,3.035353803524295,8.789999999999984e-08,0.010435613574235
8.799999999999984e-08,3.037155841161507,8.799999999999984e-08,0.01035961586159342
8.809999999999983e-08,3.038957878798719,8.809999999999983e-08,0.01028361814895183
8.819999999999982e-08,3.040083813912079,8.819999999999982e-08,0.009957253559743756
8.829999999999982e-08,3.040603924975826,8.829999999999982e-08,0.009462263360812122
8.839999999999981e-08,3.040599357114014,8.839999999999981e-08,0.008831160572709678
8.849999999999981e-08,3.040594789252202,8.849999999999981e-08,0.008200057784607234
8.85999999999998e-08,3.039965643949088,8.85999999999998e-08,0.007591818830075448
8.86999999999998e-08,3.03910872766061,8.86999999999998e-08,0.006991917861447777
8.879999999999979e-08,3.038251811372131,8.879999999999979e-08,0.006392016892820106
8.889999999999978e-08,3.037394895083652,8.889999999999978e-08,0.005792115924192436
8.899999999999978e-08,3.036537978795173,8.899999999999978e-08,0.005192214955564765
8.909999999999977e-08,3.035334260906287,8.909999999999977e-08,0.004629955585668091
8.919999999999977e-08,3.033588438062064,8.919999999999977e-08,0.004126535901559566
8.929999999999976e-08,3.031842615217841,8.929999999999976e-08,0.003623116217451042
8.939999999999975e-08,3.030096792373619,8.939999999999975e-08,0.003119696533342518
8.949999999999975e-08,3.028350969529396,8.949999999999975e-08,0.002616276849233993
8.959999999999974e-08,3.026412330543073,8.959999999999974e-08,0.002083873022336577
8.969999999999974e-08,3.021993315478243,8.969999999999974e-08,0.001178618802073841
8.979999999999973e-08,3.017574300413413,8.979999999999973e-08,0.0002733645818111061
8.989999999999973e-08,3.013155285348583,8.989999999999973e-08,-0.0006318896384516289
8.999999999999972e-08,3.008736270283753,8.999999999999972e-08,-0.001537143858714363
9.009999999999971e-08,3.004317255218924,9.009999999999971e-08,-0.002442398078977099
9.019999999999971e-08,2.999898240154094,9.019999999999971e-08,-0.003347652299239833
9.02999999999997e-08,2.995479225089264,9.02999999999997e-08,-0.004252906519502568
9.03999999999997e-08,2.986044906098597,9.03999999999997e-08,-0.005766178482829354
9.049999999999969e-08,2.9764622072402,9.049999999999969e-08,-0.007297438905804273
9.059999999999969e-08,2.966879508381804,9.059999999999969e-08,-0.00882869932877919
9.069999999999968e-08,2.957296809523407,9.069999999999968e-08,-0.01035995975175411
9.079999999999967e-08,2.947714110665011,9.079999999999967e-08,-0.01189122017472903
9.089999999999967e-08,2.938131411806614,9.089999999999967e-08,-0.01342248059770395
9.099999999999966e-08,2.928548712948218,9.099999999999966e-08,-0.01495374102067886
9.109999999999966e-08,2.918966014089821,9.109999999999966e-08,-0.01648500144365378
9.119999999999965e-08,2.907277642917966,9.119999999999965e-08,-0.01812636443695106
9.129999999999965e-08,2.891250025652194,9.129999999999965e-08,-0.01999462035425545
9.139999999999964e-08,2.875222408386421,9.139999999999964e-08,-0.02186287627155984
9.149999999999963e-08,2.859194791120648,9.149999999999963e-08,-0.02373113218886423
9.159999999999963e-08,2.843167173854876,9.159999999999963e-08,-0.02559938810616862
9.169999999999962e-08,2.827139556589103,9.169999999999962e-08,-0.02746764402347301
9.179999999999962e-08,2.811111939323331,9.179999999999962e-08,-0.0293358999407774
9.189999999999961e-08,2.795084322057558,9.189999999999961e-08,-0.03120415585808179
9.199999999999961e-08,2.779056704791785,9.199999999999961e-08,-0.03307241177538618
9.20999999999996e-08,2.762016173006058,9.20999999999996e-08,-0.03496986144404562
9.219999999999959e-08,2.737019954880124,9.219999999999959e-08,-0.03709660620552804
9.229999999999959e-08,2.712023736754189,9.229999999999959e-08,-0.03922335096701047
9.239999999999958e-08,2.687027518628255,9.239999999999958e-08,-0.04135009572849289
9.249999999999958e-08,2.662031300502321,9.249999999999958e-08,-0.04347684048997531
9.259999999999957e-08,2.637035082376387,9.259999999999957e-08,-0.04560358525145773
9.269999999999957e-08,2.612038864250452,9.269999999999957e-08,-0.04773033001294015
9.279999999999956e-08,2.587042646124518,9.279999999999956e-08,-0.04985707477442257
9.289999999999955e-08,2.562046427998584,9.289999999999955e-08,-0.05198381953590499
9.299999999999955e-08,2.537050209872649,9.299999999999955e-08,-0.05411056429738741
9.309999999999954e-08,2.512053991746715,9.309999999999954e-08,-0.05623730905886983
9.319999999999954e-08,2.487057773620781,9.319999999999954e-08,-0.05836405382035226
9.329999999999953e-08,2.462061555494847,9.329999999999953e-08,-0.06049079858183468
9.339999999999953e-08,2.432983099034435,9.339999999999953e-08,-0.06261324279127539
9.349999999999952e-08,2.395282906676985,9.349999999999952e-08,-0.06472660418367385
9.359999999999951e-08,2.357582714319536,9.359999999999951e-08,-0.0668399655760723
9.369999999999951e-08,2.319882521962086,9.369999999999951e-08,-0.06895332696847076
9.37999999999995e-08,2.282182329604637,9.37999999999995e-08,-0.07106668836086921
9.38999999999995e-08,2.244482137247187,9.38999999999995e-08,-0.07318004975326767
9.399999999999949e-08,2.206781944889737,9.399999999999949e-08,-0.07529341114566612
9.409999999999949e-08,2.169081752532288,9.409999999999949e-08,-0.07740677253806456
9.419999999999948e-08,2.131381560174838,9.419999999999948e-08,-0.07952013393046302
9.429999999999947e-08,2.093681367817389,9.429999999999947e-08,-0.08163349532286147
9.439999999999947e-08,2.055981175459939,9.439999999999947e-08,-0.08374685671525993
9.449999999999946e-08,2.01828098310249,9.449999999999946e-08,-0.08586021810765838
9.459999999999946e-08,1.98058079074504,9.459999999999946e-08,-0.08797357950005684
9.469999999999945e-08,1.942880598387591,9.469999999999945e-08,-0.09008694089245529
9.479999999999945e-08,1.905180406030141,9.479999999999945e-08,-0.09220030228485374
9.489999999999944e-08,1.865214403932141,9.489999999999944e-08,-0.09309175274094565
9.499999999999943e-08,1.821374625994795,9.499999999999943e-08,-0.09189414471247771
9.509999999999943e-08,1.777534848057449,9.509999999999943e-08,-0.09069653668400977
9.519999999999942e-08,1.733695070120103,9.519999999999942e-08,-0.08949892865554183
9.529999999999942e-08,1.689855292182757,9.529999999999942e-08,-0.0883013206270739
9.539999999999941e-08,1.646015514245411,9.539999999999941e-08,-0.08710371259860596
9.549999999999941e-08,1.602175736308065,9.549999999999941e-08,-0.08590610457013802
9.55999999999994e-08,1.558335958370719,9.55999999999994e-08,-0.08470849654167008
9.569999999999939e-08,1.514496180433373,9.569999999999939e-08,-0.08351088851320214
9.579999999999939e-08,1.470656402496027,9.579999999999939e-08,-0.0823132804847342
9.589999999999938e-08,1.426816624558681,9.589999999999938e-08,-0.08111567245626626
9.599999999999938e-08,1.38492333964601,9.599999999999938e-08,-0.0770517041530378
9.609999999999937e-08,1.346937343643512,9.609999999999937e-08,-0.06723395324069595
9.619999999999937e-08,1.308951347641014,9.619999999999937e-08,-0.05741620232835409
9.629999999999936e-08,1.270965351638515,9.629999999999936e-08,-0.04759845141601223
9.639999999999935e-08,1.232979355636017,9.639999999999935e-08,-0.03778070050367038
9.649999999999935e-08,1.194993359633519,9.649999999999935e-08,-0.02796294959132853
9.659999999999934e-08,1.157007363631021,9.659999999999934e-08,-0.01814519867898667
9.669999999999934e-08,1.119021367628522,9.669999999999934e-08,-0.008327447766644819
9.679999999999933e-08,1.081035371626024,9.679999999999933e-08,0.001490303145697036
9.689999999999933e-08,1.044157008213888,9.689999999999933e-08,0.01263591353878827
9.699999999999932e-08,1.017311184189233,9.699999999999932e-08,0.03580879963464175
9.709999999999931e-08,0.9904653601645774,9.709999999999931e-08,0.05898168573049524
9.719999999999931e-08,0.9636195361399219,9.719999999999931e-08,0.08215457182634872
9.72999999999993e-08,0.9367737121152664,9.72999999999993e-08,0.1053274579222022
9.73999999999993e-08,0.9099278880906109,9.73999999999993e-08,0.1285003440180557
9.749999999999929e-08,0.8830820640659554,9.749999999999929e-08,0.1516732301139092
9.759999999999929e-08,0.8562362400412998,9.759999999999929e-08,0.1748461162097627
9.769999999999928e-08,0.8293904160166443,9.769999999999928e-08,0.1980190023056162
9.779999999999927e-08,0.8041318064799461,9.779999999999927e-08,0.2229153420658103
9.789999999999927e-08,0.7849151096246848,9.789999999999927e-08,0.2543722044456345
9.799999999999926e-08,0.7656984127694234,9.799999999999926e-08,0.2858290668254587
9.809999999999926e-08,0.7464817159141621,9.809999999999926e-08,0.317285929205283
9.819999999999925e-08,0.7272650190589008,9.819999999999925e-08,0.3487427915851072
9.829999999999925e-08,0.7080483222036396,9.829999999999925e-08,0.3801996539649314
9.839999999999924e-08,0.6888316253483783,9.839999999999924e-08,0.4116565163447556
9.849999999999923e-08,0.669614928493117,9.849999999999923e-08,0.4431133787245798
9.859999999999923e-08,0.6503982316378556,9.859999999999923e-08,0.4745702411044041
9.869999999999922e-08,0.6311815347825944,9.869999999999922e-08,0.5060271034842283
9.879999999999922e-08,0.611964837927333,9.879999999999922e-08,0.5374839658640526
9.889999999999921e-08,0.5930128267870943,9.889999999999921e-08,0.5695642024256836
9.899999999999921e-08,0.5748353686762756,9.899999999999921e-08,0.6034686264427641
9.90999999999992e-08,0.556657910565457,9.90999999999992e-08,0.6373730504598447
9.919999999999919e-08,0.5384804524546383,9.919999999999919e-08,0.6712774744769252
9.929999999999919e-08,0.5203029943438195,9.929999999999919e-08,0.7051818984940058
9.939999999999918e-08,0.5021255362330009,9.939999999999918e-08,0.7390863225110863
9.949999999999918e-08,0.4839480781221823,9.949999999999918e-08,0.7729907465281669
9.959999999999917e-08,0.4657706200113636,9.959999999999917e-08,0.8068951705452474
9.969999999999917e-08,0.4475931619005449,9.969999999999917e-08,0.8407995945623279
9.979999999999916e-08,0.4308012059586233,9.979999999999916e-08,0.8757897302719625
9.989999999999915e-08,0.4158478508806291,9.989999999999915e-08,0.9122206363396075
9.999999999999915e-08,0.4008944958026348,9.999999999999915e-08,0.9486515424072524
1.000999999999991e-07,0.3859411407246405,1.000999999999991e-07,0.9850824484748972
1.001999999999991e-07,0.3709877856466463,1.001999999999991e-07,1.021513354542542
1.002999999999991e-07,0.356034430568652,1.002999999999991e-07,1.057944260610187
1.003999999999991e-07,0.3410810754906577,1.003999999999991e-07,1.094375166677832
1.004999999999991e-07,0.3261277204126635,1.004999999999991e-07,1.130806072745477
1.005999999999991e-07,0.3111743653346692,1.005999999999991e-07,1.167236978813122
1.006999999999991e-07,0.296221010256675,1.006999999999991e-07,1.203667884880767
1.007999999999991e-07,0.2812676551786807,1.007999999999991e-07,1.240098790948412
1.008999999999991e-07,0.2729823089837108,1.008999999999991e-07,1.274909285111757
1.009999999999991e-07,0.2649749154337623,1.009999999999991e-07,1.309652233208095
1.010999999999991e-07,0.2569675218838138,1.010999999999991e-07,1.344395181304432
1.011999999999991e-07,0.2489601283338653,1.011999999999991e-07,1.379138129400769
1.012999999999991e-07,0.2409527347839168,1.012999999999991e-07,1.413881077497107
1.013999999999991e-07,0.2329453412339684,1.013999999999991e-07,1.448624025593444
1.014999999999991e-07,0.2249379476840199,1.014999999999991e-07,1.483366973689781
1.015999999999991e-07,0.2169305541340714,1.015999999999991e-07,1.518109921786119
1.016999999999991e-07,0.2089231605841229,1.016999999999991e-07,1.552852869882456
1.01799999999999e-07,0.2009157670341744,1.01799999999999e-07,1.587595817978794
1.01899999999999e-07,0.1940764131694233,1.01899999999999e-07,1.619997748866702
1.01999999999999e-07,0.1890049077675296,1.01999999999999e-07,1.648856509324792
1.02099999999999e-07,0.1839334023656359,1.02099999999999e-07,1.677715269782883
1.02199999999999e-07,0.1788618969637422,1.02199999999999e-07,1.706574030240974
1.02299999999999e-07,0.1737903915618484,1.02299999999999e-07,1.735432790699065
1.02399999999999e-07,0.1687188861599547,1.02399999999999e-07,1.764291551157156
1.02499999999999e-07,0.163647380758061,1.02499999999999e-07,1.793150311615247
1.02599999999999e-07,0.1585758753561672,1.02599999999999e-07,1.822009072073337
1.02699999999999e-07,0.1535043699542735,1.02699999999999e-07,1.850867832531428
1.02799999999999e-07,0.1484328645523798,1.02799999999999e-07,1.879726592989519
1.02899999999999e-07,0.1437838409649791,1.02899999999999e-07,1.906522412241647
1.02999999999999e-07,0.1402961487917911,1.02999999999999e-07,1.92764755326344
1.03099999999999e-07,0.1368084566186031,1.03099999999999e-07,1.948772694285232
1.03199999999999e-07,0.1333207644454151,1.03199999999999e-07,1.969897835307025
1.03299999999999e-07,0.1298330722722271,1.03299999999999e-07,1.991022976328818
1.03399999999999e-07,0.1263453800990391,1.03399999999999e-07,2.01214811735061
1.034999999999989e-07,0.1228576879258511,1.034999999999989e-07,2.033273258372403
1.035999999999989e-07,0.1193699957526631,1.035999999999989e-07,2.054398399394196
1.036999999999989e-07,0.1158823035794751,1.036999999999989e-07,2.075523540415989
1.037999999999989e-07,0.1123946114062871,1.037999999999989e-07,2.096648681437781
1.038999999999989e-07,0.1089069192330991,1.038999999999989e-07,2.117773822459574
1.039999999999989e-07,0.1054192270599111,1.039999999999989e-07,2.138898963481367
1.040999999999989e-07,0.1019315348867231,1.040999999999989e-07,2.16002410450316
1.041999999999989e-07,0.09864345274182462,1.041999999999989e-07,2.179738536063155
1.042999999999989e-07,0.09627524047852885,1.042999999999989e-07,2.192951945822196
1.043999999999989e-07,0.0939070282152331,1.043999999999989e-07,2.206165355581238
1.044999999999989e-07,0.09153881595193734,1.044999999999989e-07,2.21937876534028
1.045999999999989e-07,0.08917060368864158,1.045999999999989e-07,2.232592175099322
1.046999999999989e-07,0.08680239142534582,1.046999999999989e-07,2.245805584858363
1.047999999999989e-07,0.08443417916205007,1.047999999999989e-07,2.259018994617405
1.048999999999989e-07,0.0820659668987543,1.048999999999989e-07,2.272232404376447
1.049999999999989e-07,0.07969775463545854,1.049999999999989e-07,2.285445814135489
1.050999999999989e-07,0.07732954237216277,1.050999999999989e-07,2.29865922389453
1.051999999999989e-07,0.07496133010886702,1.051999999999989e-07,2.311872633653572
1.052999999999988e-07,0.07259311784557126,1.052999999999988e-07,2.325086043412613
1.053999999999988e-07,0.07022490558227551,1.053999999999988e-07,2.338299453171655
1.054999999999988e-07,0.06785669331897974,1.054999999999988e-07,2.351512862930697
1.055999999999988e-07,0.06625888226927068,1.055999999999988e-07,2.361480644047485
1.056999999999988e-07,0.06481600535465791,1.056999999999988e-07,2.370795702066669
1.057999999999988e-07,0.06337312844004515,1.057999999999988e-07,2.380110760085852
1.058999999999988e-07,0.06193025152543238,1.058999999999988e-07,2.389425818105035
1.059999999999988e-07,0.06048737461081961,1.059999999999988e-07,2.398740876124219
1.060999999999988e-07,0.05904449769620685,1.060999999999988e-07,2.408055934143402
1.061999999999988e-07,0.05760162078159409,1.061999999999988e-07,2.417370992162586
1.062999999999988e-07,0.05615874386698132,1.062999999999988e-07,2.426686050181769
1.063999999999988e-07,0.05471586695236855,1.063999999999988e-07,2.436001108200952
1.064999999999988e-07,0.05327299003775578,1.064999999999988e-07,2.445316166220136
1.065999999999988e-07,0.05205657243474293,1.065999999999988e-07,2.454434164143244
1.066999999999988e-07,0.05124526966279069,1.066999999999988e-07,2.463199639721537
1.067999999999988e-07,0.05043396689083846,1.067999999999988e-07,2.471965115299831
1.068999999999988e-07,0.04962266411888622,1.068999999999988e-07,2.480730590878125
1.069999999999987e-07,0.04881136134693398,1.069999999999987e-07,2.489496066456418
1.070999999999987e-07,0.04800005857498174,1.070999999999987e-07,2.498261542034712
1.071999999999987e-07,0.0471887558030295,1.071999999999987e-07,2.507027017613005
1.072999999999987e-07,0.04637745303107726,1.072999999999987e-07,2.515792493191299
1.073999999999987e-07,0.04556615025912502,1.073999999999987e-07,2.524557968769592
1.074999999999987e-07,0.04504742292188053,1.074999999999987e-07,2.533785153855576
1.075999999999987e-07,0.0446224780898407,1.075999999999987e-07,2.543160335899512
1.076999999999987e-07,0.04419753325780088,1.076999999999987e-07,2.552535517943447
1.077999999999987e-07,0.04377258842576105,1.077999999999987e-07,2.561910699987383
1.078999999999987e-07,0.04334764359372123,1.078999999999987e-07,2.571285882031319
1.079999999999987e-07,0.0429226987616814,1.079999999999987e-07,2.580661064075255
1.080999999999987e-07,0.04249775392964158,1.080999999999987e-07,2.59003624611919
1.081999999999987e-07,0.04207280909760176,1.081999999999987e-07,2.599411428163126
1.082999999999987e-07,0.04164786426556193,1.082999999999987e-07,2.608786610207061
1.083999999999987e-07,0.04122702341375813,1.083999999999987e-07,2.618176340656392
1.084999999999987e-07,0.04100349606478502,1.084999999999987e-07,2.628265537639201
1.085999999999987e-07,0.04077996871581192,1.085999999999987e-07,2.638354734622011
1.086999999999987e-07,0.04053338224429751,1.086999999999987e-07,2.648319814065212
1.087999999999986e-07,0.04017792809528129,1.087999999999986e-07,2.657698904676875
1.088999999999986e-07,0.03982247394626507,1.088999999999986e-07,2.667077995288537
1.089999999999986e-07,0.03946701979724885,1.089999999999986e-07,2.676457085900199
1.090999999999986e-07,0.03911156564823263,1.090999999999986e-07,2.685836176511861
1.091999999999986e-07,0.03875611149921641,1.091999999999986e-07,2.695215267123523
1.092999999999986e-07,0.03832321328906773,1.092999999999986e-07,2.703899566751404
