/Z (Vbias=5) X,/Z (Vbias=5) Y,/Z (Vbias=6) X,/Z (Vbias=6) Y,/Z (Vbias=7) X,/Z (Vbias=7) Y,/Z (Vbias=8) X,/Z (Vbias=8) Y,/Z (Vbias=9) X,/Z (Vbias=9) Y,/Z (Vbias=10) X,/Z (Vbias=10) Y,/Z (Vbias=11) X,/Z (Vbias=11) Y,/Z (Vbias=12) X,/Z (Vbias=12) Y,/w_B (Vbias=5) X,/w_B (Vbias=5) Y,/w_B (Vbias=6) X,/w_B (Vbias=6) Y,/w_B (Vbias=7) X,/w_B (Vbias=7) Y,/w_B (Vbias=8) X,/w_B (Vbias=8) Y,/w_B (Vbias=9) X,/w_B (Vbias=9) Y,/w_B (Vbias=10) X,/w_B (Vbias=10) Y,/w_B (Vbias=11) X,/w_B (Vbias=11) Y,/w_B (Vbias=12) X,/w_B (Vbias=12) Y,/w_A (Vbias=5) X,/w_A (Vbias=5) Y,/w_A (Vbias=6) X,/w_A (Vbias=6) Y,/w_A (Vbias=7) X,/w_A (Vbias=7) Y,/w_A (Vbias=8) X,/w_A (Vbias=8) Y,/w_A (Vbias=9) X,/w_A (Vbias=9) Y,/w_A (Vbias=10) X,/w_A (Vbias=10) Y,/w_A (Vbias=11) X,/w_A (Vbias=11) Y,/w_A (Vbias=12) X,/w_A (Vbias=12) Y
0,4.955269785227294,0,4.999997746996232,0,4.99999932873263,0,4.999999634441902,0,4.999999756233069,0,4.999999820227362,0,4.999999859072216,0,4.999999884949476,0,0,0,0,0,0,0,0,0,0,0,0,0,0,0,0,0,0,0,0,0,0,0,0,0,0,0,0,0,0,0,0
1.5625e-10,5.189617266273864,1.5625e-10,5.211194076161818,1.5625e-10,5.171548686433382,1.5625e-10,5.140940491897938,1.5625e-10,5.118138852267532,1.5625e-10,5.100831650986194,1.5625e-10,5.087436036031761,1.5625e-10,5.076836055790686,1.5625e-10,0.3125,1.5625e-10,0.3125,1.5625e-10,0.3125,1.5625e-10,0.3125,1.5625e-10,0.3125,1.5625e-10,0.3125,1.5625e-10,0.3125,1.5625e-10,0.3125,1.5625e-10,0.15625,1.5625e-10,0.15625,1.5625e-10,0.15625,1.5625e-10,0.15625,1.5625e-10,0.15625,1.5625e-10,0.15625,1.5625e-10,0.15625,1.5625e-10,0.15625
3.207804127471575e-10,5.435986551311522,3.364810335895292e-10,5.386923458705106,3.509194486013407e-10,5.296644226342423,3.643585365109995e-10,5.231913885401718,3.769809034067274e-10,5.186623832869091,3.889195091084133e-10,5.153062756724538,3.889195091084133e-10,5.128018243184842,3.889195091084133e-10,5.110133242882217,3.207804127471575e-10,0.6415608254943149,3.364810335895292e-10,0.6729620671790585,3.509194486013407e-10,0.7018388972026813,3.643585365109995e-10,0.7287170730219988,3.769809034067274e-10,0.7539618068134547,3.889195091084133e-10,0.7778390182168267,3.889195091084133e-10,0.7778390182168267,3.889195091084133e-10,0.7778390182168267,3.207804127471575e-10,0.3207804127471575,3.364810335895292e-10,0.3364810335895292,3.509194486013407e-10,0.3509194486013407,3.643585365109995e-10,0.3643585365109994,3.769809034067274e-10,0.3769809034067274,3.889195091084133e-10,0.3889195091084133,3.889195091084133e-10,0.3889195091084133,3.889195091084133e-10,0.3889195091084133
6.498412382414724e-10,5.890869824526548,5.52089871353358e-10,5.585255283307602,5.781888374486016e-10,5.416225629011294,7.114616326140615e-10,5.324586050346547,7.496277146363202e-10,5.243377761082361,6.676936745435138e-10,5.185044135707819,6.751835725432077e-10,5.150402195708558,6.870454389677714e-10,5.125371265522872,6.498412382414724e-10,1.299682476482945,5.52089871353358e-10,1.104179742706716,5.781888374486016e-10,1.156377674897203,7.114616326140615e-10,1.422923265228123,7.496277146363202e-10,1.499255429272641,6.676936745435138e-10,1.335387349087028,6.751835725432077e-10,1.350367145086415,6.870454389677714e-10,1.374090877935543,6.498412382414724e-10,0.6498412382414723,5.52089871353358e-10,0.552089871353358,5.781888374486016e-10,0.5781888374486015,7.114616326140615e-10,0.7114616326140615,7.496277146363202e-10,0.7496277146363203,6.676936745435138e-10,0.6676936745435138,6.751835725432077e-10,0.6751835725432077,6.870454389677714e-10,0.6870454389677715
9.363912045055418e-10,6.239917390036242,7.555340963223459e-10,5.747870321192318,7.921293888812305e-10,5.486053813656227,9.549135141380356e-10,5.337314855950319,1.011813707958228e-09,5.239729595286737,9.320903628135876e-10,5.183050395412645,9.47265352746655e-10,5.145750813875889,9.706655641090358e-10,5.119857351382031,9.363912045055418e-10,1.872782409011084,7.555340963223459e-10,1.511068192644692,7.921293888812305e-10,1.584258777762461,9.549135141380356e-10,1.909827028276071,1.011813707958228e-09,2.023627415916457,9.320903628135876e-10,1.864180725627175,9.47265352746655e-10,1.89453070549331,9.706655641090358e-10,1.941331128218071,9.363912045055418e-10,0.9363912045055418,7.555340963223459e-10,0.7555340963223459,7.921293888812305e-10,0.7921293888812304,9.549135141380356e-10,0.9549135141380355,1.011813707958228e-09,1.011813707958228,9.320903628135876e-10,0.9320903628135877,9.47265352746655e-10,0.947265352746655,9.706655641090358e-10,0.9706655641090357
1.509491137033681e-09,6.834124625361619,1.150637938936247e-09,5.984275792990374,1.190506586151533e-09,5.540721154434783,1.441817277185984e-09,5.324235449827396,1.536185694602045e-09,5.219095332711433,1.460883739353735e-09,5.170307092419882,1.49142891315355e-09,5.134790989704802,1.537905814391565e-09,5.109688167266574,1.509491137033681e-09,3.018982274067361,1.150637938936247e-09,2.301275877872494,1.190506586151533e-09,2.381013172303066,1.441817277185984e-09,2.883634554371967,1.536185694602045e-09,3.072371389204089,1.460883739353735e-09,2.921767478707471,1.49142891315355e-09,2.9828578263071,1.537905814391565e-09,3.075811628783129,1.509491137033681e-09,1.509491137033681,1.150637938936247e-09,1.150637938936247,1.190506586151533e-09,1.190506586151533,1.441817277185984e-09,1.441817277185984,1.536185694602045e-09,1.536185694602045,1.460883739353735e-09,1.460883739353735,1.49142891315355e-09,1.49142891315355,1.537905814391565e-09,1.537905814391564
1.913944205150523e-09,7.115692542806692,1.572018200364653e-09,6.111094547615036,1.617887054017648e-09,5.524749891372927,1.882139792196908e-09,5.282519263276053,2.021159911065227e-09,5.17486272329715,1.962274728813473e-09,5.140412152953632,2.032713847369162e-09,5.103739386213243,2.018952907195782e-09,5.083932204228568,1.913944205150523e-09,3.827888410301046,1.572018200364653e-09,3.144036400729306,1.617887054017648e-09,3.235774108035295,1.882139792196908e-09,3.764279584393817,2.021159911065227e-09,4.042319822130453,1.962274728813473e-09,3.924549457626946,2.032713847369162e-09,4.065427694738325,2.018952907195782e-09,4.037905814391565,1.913944205150523e-09,1.913944205150523,1.572018200364653e-09,1.572018200364653,1.617887054017648e-09,1.617887054017648,1.882139792196908e-09,1.882139792196908,2.021159911065227e-09,2.021159911065226,1.962274728813473e-09,1.962274728813473,2.032713847369162e-09,2.032713847369163,2.018952907195782e-09,2.018952907195783
2.206972102575262e-09,7.17509359161664,2.08943130203146e-09,6.060895278456905,2.088704798599997e-09,5.432989791307436,2.191069896098454e-09,5.22559387154588,2.5e-09,5.067689294217725,2.231137364406737e-09,5.105095489309979,2.5e-09,5.028444902248033,2.5e-09,5.015983288096081,2.206972102575262e-09,4.413944205150523,2.08943130203146e-09,4.178862604062919,2.088704798599997e-09,4.177409597199993,2.191069896098454e-09,4.382139792196909,2.5e-09,5,2.231137364406737e-09,4.462274728813473,2.5e-09,5,2.5e-09,5,2.206972102575262e-09,2.206972102575262,2.08943130203146e-09,2.08943130203146,2.088704798599997e-09,2.088704798599997,2.191069896098454e-09,2.191069896098454,2.5e-09,2.5,2.231137364406737e-09,2.231137364406737,2.5e-09,2.5,2.5e-09,2.5
2.5e-09,7.056169546823331,2.5e-09,5.819432671233053,2.5e-09,5.263668954660316,2.5e-09,5.12793594331625,2.640666285298527e-09,4.913082405696391,2.5e-09,5.046083024675089,2.635845963264481e-09,4.910993707425473,2.640622593029863e-09,4.90807316317377,2.5e-09,5,2.5e-09,5,2.5e-09,5,2.5e-09,5,2.640666285298527e-09,5,2.5e-09,5,2.635845963264481e-09,5,2.640622593029863e-09,5,2.5e-09,2.5,2.5e-09,2.5,2.5e-09,2.5,2.5e-09,2.5,2.640666285298527e-09,2.640666285298527,2.5e-09,2.5,2.635845963264481e-09,2.635845963264481,2.640622593029863e-09,2.640622593029863
2.593056357029776e-09,6.85755657104684,2.580335404908287e-09,5.655798102992614,2.58510656105912e-09,5.127852355730131,2.580007358737677e-09,5.017409381495658,2.840066280953161e-09,4.735550008282151,2.581523740971924e-09,4.955752192621046,2.838210367111219e-09,4.785921516444848,2.842525740089402e-09,4.802948596885119,2.593056357029776e-09,5,2.580335404908287e-09,5,2.58510656105912e-09,5,2.580007358737677e-09,5,2.840066280953161e-09,5,2.581523740971924e-09,5,2.838210367111219e-09,5,2.842525740089402e-09,5,2.593056357029776e-09,2.593056357029777,2.580335404908287e-09,2.580335404908287,2.58510656105912e-09,2.58510656105912,2.580007358737677e-09,2.580007358737677,2.840066280953161e-09,2.840066280953161,2.581523740971924e-09,2.581523740971924,2.838210367111219e-09,2.838210367111219,2.842525740089402e-09,2.842525740089402
2.72426364240153e-09,6.570800305950963,2.740943413982803e-09,5.339797424220734,2.749946911609519e-09,4.88546803246232,2.721568627842446e-09,4.844405273353893,3.020541342326336e-09,4.615196692069341,2.719119814839543e-09,4.83425973066799,3.018219236793248e-09,4.717538341709865,3.025710398142743e-09,4.748408280092594,2.72426364240153e-09,5,2.740943413982803e-09,5,2.749946911609519e-09,5,2.721568627842446e-09,5,3.020541342326336e-09,5,2.719119814839543e-09,5,3.018219236793248e-09,5,3.025710398142743e-09,5,2.72426364240153e-09,2.72426364240153,2.740943413982803e-09,2.740943413982803,2.749946911609519e-09,2.749946911609519,2.721568627842446e-09,2.721568627842446,3.020541342326336e-09,3.020541342326336,2.719119814839543e-09,2.719119814839543,3.018219236793248e-09,3.018219236793248,3.025710398142743e-09,3.025710398142742
2.844090979505179e-09,6.294592885799542,2.879792269389052e-09,5.074839804568457,2.895160976367548e-09,4.694666874983304,2.850764377363101e-09,4.716252642874466,3.381491465072685e-09,4.3604180417133,2.846212045526324e-09,4.760623637303556,3.378236976157305e-09,4.561335239434169,3.392079714249424e-09,4.615971499900528,2.844090979505179e-09,5,2.879792269389052e-09,5,2.895160976367548e-09,5,2.850764377363101e-09,5,3.381491465072685e-09,5,2.846212045526324e-09,5,3.378236976157305e-09,5,3.392079714249424e-09,5,2.844090979505179e-09,2.844090979505179,2.879792269389052e-09,2.879792269389052,2.895160976367548e-09,2.895160976367547,2.850764377363101e-09,2.850764377363101,3.381491465072685e-09,3.381491465072685,2.846212045526324e-09,2.846212045526324,3.378236976157305e-09,3.378236976157305,3.392079714249424e-09,3.392079714249424
2.904004648057003e-09,6.15129066282354,3.157489980201551e-09,4.525909784457929,3.185589105883604e-09,4.312354196039599,3.10915587640441e-09,4.481936087437375,3.677747420952816e-09,4.116839359395686,3.100396506899885e-09,4.633925275106662,3.669314882682172e-09,4.417490941227973,3.688199897671324e-09,4.493271709161454,2.904004648057003e-09,5,3.157489980201551e-09,5,3.185589105883604e-09,5,3.10915587640441e-09,5,3.677747420952816e-09,5,3.100396506899885e-09,5,3.669314882682172e-09,5,3.688199897671324e-09,5,2.904004648057003e-09,2.904004648057003,3.157489980201551e-09,3.157489980201551,3.185589105883604e-09,3.185589105883604,3.10915587640441e-09,3.109155876404409,3.677747420952816e-09,3.677747420952815,3.100396506899885e-09,3.100396506899885,3.669314882682172e-09,3.669314882682172,3.688199897671324e-09,3.688199897671324
3.023831985160652e-09,5.857392211919495,3.456235010668282e-09,3.878741039327339,3.465597686318962e-09,3.913236482463151,3.368978123101212e-09,4.227993954386935,4.247413394173117e-09,3.508330713312845,3.337508513566212e-09,4.505864900207873,4.186433228143195e-09,4.101755410305163,4.243830213261317e-09,4.215423459956473,3.023831985160652e-09,5,3.456235010668282e-09,5,3.465597686318962e-09,5,3.368978123101212e-09,5,4.247413394173117e-09,5,3.337508513566212e-09,5,4.186433228143195e-09,5,4.243830213261317e-09,5,3.023831985160652e-09,3.023831985160652,3.456235010668282e-09,3.456235010668282,3.465597686318962e-09,3.465597686318962,3.368978123101212e-09,3.368978123101211,4.247413394173117e-09,4.247413394173116,3.337508513566212e-09,3.337508513566211,4.186433228143195e-09,4.186433228143195,4.243830213261317e-09,4.243830213261317
3.083745653712476e-09,5.705277590950696,3.873774895483713e-09,2.941385186771311,3.881602228859648e-09,3.231423741878325,3.705315835243336e-09,3.842573182650236,4.623706697086559e-09,3.019389488448158,3.705890917099254e-09,4.274008247506057,4.593216614071598e-09,3.790612599685476,4.621915106630658e-09,3.989593481324173,3.083745653712476e-09,5,3.873774895483713e-09,5,3.881602228859648e-09,5,3.705315835243336e-09,5,4.623706697086559e-09,5,3.705890917099254e-09,5,4.593216614071598e-09,5,4.621915106630658e-09,5,3.083745653712476e-09,3.083745653712477,3.873774895483713e-09,3.873774895483713,3.881602228859648e-09,3.881602228859647,3.705315835243336e-09,3.705315835243336,4.623706697086559e-09,4.623706697086559,3.705890917099254e-09,3.705890917099254,4.593216614071598e-09,4.593216614071598,4.621915106630658e-09,4.621915106630659
3.203572990816125e-09,5.361006805159372,4.238545496607004e-09,2.183391222552518,4.423316604185803e-09,2.291885929356627,4.201044330300954e-09,3.14895029904566,5e-09,2.547071679392106,4.250506183542408e-09,3.832531627846298,5e-09,3.459023957383716,5e-09,3.756631054781116,3.203572990816125e-09,5,4.238545496607004e-09,5,4.423316604185803e-09,5,4.201044330300954e-09,5,5e-09,5,4.250506183542408e-09,5,5e-09,5,5e-09,5,3.203572990816125e-09,3.203572990816125,4.238545496607004e-09,4.238545496607005,4.423316604185803e-09,4.423316604185803,4.201044330300954e-09,4.201044330300954,5e-09,5,4.250506183542408e-09,4.250506183542409,5e-09,5,5e-09,5
3.340458427358151e-09,4.902708782597304,4.621103438031205e-09,1.542286001870345,4.711658302092901e-09,1.850294288747315,4.600522165150477e-09,2.536974458133411,5.16013929567612e-09,2.363683632396255,5e-09,3.069598779455605,5.170372858254699e-09,3.312725516253963,5.16805841557698e-09,3.645874543883619,3.340458427358151e-09,5,4.621103438031205e-09,5,4.711658302092901e-09,5,4.600522165150477e-09,5,5.16013929567612e-09,5,5e-09,5,5.170372858254699e-09,5,5.16805841557698e-09,5,3.340458427358151e-09,3.340458427358151,4.621103438031205e-09,4.621103438031205,4.711658302092901e-09,4.711658302092901,4.600522165150477e-09,4.600522165150477,5.16013929567612e-09,5,5e-09,5,5.170372858254699e-09,5,5.16805841557698e-09,5
3.393442807896976e-09,4.717840946644029,4.810551719015602e-09,1.294165924355665,5e-09,1.496325803418358,5e-09,2.004595417002996,5.384847553602628e-09,2.128992251490843,5.211402166695278e-09,2.851339861121592,5.409281841293988e-09,3.119402580895539,5.397765191934407e-09,3.502394297749172,3.393442807896976e-09,5,4.810551719015602e-09,5,5e-09,5,5e-09,5,5.384847553602628e-09,5,5.211402166695278e-09,5,5.409281841293988e-09,5,5.397765191934407e-09,5,3.393442807896976e-09,3.393442807896976,4.810551719015602e-09,4.810551719015602,5e-09,5,5e-09,5,5.384847553602628e-09,5,5.211402166695278e-09,5,5.409281841293988e-09,5,5.397765191934407e-09,5
3.499411568974625e-09,4.346186102784251,5e-09,1.090265663619404,5.133623376975886e-09,1.35912305264085,5.152228094786674e-09,1.834236636730627,5.596355774723748e-09,1.957624983277171,5.53768832965412e-09,2.556658024586461,5.633748212798072e-09,2.974048670504668,5.614455758754465e-09,3.394549222030617,3.499411568974625e-09,5,5e-09,5,5.133623376975886e-09,5,5.152228094786674e-09,5,5.596355774723748e-09,5,5.53768832965412e-09,5,5.633748212798072e-09,5,5.614455758754465e-09,5,3.499411568974625e-09,3.499411568974625,5e-09,5,5.133623376975886e-09,5,5.152228094786674e-09,5,5.596355774723748e-09,5,5.53768832965412e-09,5,5.633748212798072e-09,5,5.614455758754465e-09,5
3.698434772535793e-09,3.708923618531845,5.116580474276886e-09,0.9813338068186227,5.311121961851876e-09,1.190392064266975,5.37441964670444e-09,1.609878231698362,5.934674625900844e-09,1.783153069461912,5.847371300186585e-09,2.367667006506113,5.978019899227591e-09,2.830677000423989,5.957830322216628e-09,3.286901151883087,3.698434772535793e-09,5,5.116580474276886e-09,5,5.311121961851876e-09,5,5.37441964670444e-09,5,5.934674625900844e-09,5,5.847371300186585e-09,5,5.978019899227591e-09,5,5.957830322216628e-09,5,3.698434772535793e-09,3.698434772535793,5.116580474276886e-09,5,5.311121961851876e-09,5,5.37441964670444e-09,5,5.934674625900844e-09,5,5.847371300186585e-09,5,5.978019899227591e-09,5,5.957830322216628e-09,5
3.87530040730154e-09,3.202902307253753,5.25298889251935e-09,0.8602821229420595,5.478860889905576e-09,1.060871827814362,5.58184756578585e-09,1.450084619384532,6.319706042182894e-09,1.680535183596153,6.24985983645351e-09,2.236270640493974,6.374879425944479e-09,2.74270040554851,6.347165981844102e-09,3.222330954862417,3.87530040730154e-09,5,5.25298889251935e-09,5,5.478860889905576e-09,5,5.58184756578585e-09,5,6.319706042182894e-09,5,6.24985983645351e-09,5,6.374879425944479e-09,5,6.347165981844102e-09,5,3.87530040730154e-09,3.87530040730154,5.25298889251935e-09,5,5.478860889905576e-09,5,5.58184756578585e-09,5,6.319706042182894e-09,5,6.24985983645351e-09,5,6.374879425944479e-09,5,6.347165981844102e-09,5
4.14656026614921e-09,2.486741003982587,5.384345079231648e-09,0.7597201204018657,5.789182769532186e-09,0.8988579192005233,5.921080820303661e-09,1.28555502920841,6.762576312486422e-09,1.627984830376289,6.716087671153647e-09,2.167063412491365,6.836669500763605e-09,2.695919377251336,6.821311921407545e-09,3.185817710284383,4.14656026614921e-09,5,5.384345079231648e-09,5,5.789182769532186e-09,5,5.921080820303661e-09,5,6.762576312486422e-09,5,6.716087671153647e-09,5,6.836669500763605e-09,5,6.821311921407545e-09,5,4.14656026614921e-09,4.146560266149209,5.384345079231648e-09,5,5.789182769532186e-09,5,5.921080820303661e-09,5,6.762576312486422e-09,5,6.716087671153647e-09,5,6.836669500763605e-09,5,6.821311921407545e-09,5
4.446327378599815e-09,1.818000289187118,5.647057452656243e-09,0.6120772295960349,6.119247543763796e-09,0.803457195929328,6.29060187438945e-09,1.193050055493142,7.254048972982647e-09,1.605984777797195,7.179790924009233e-09,2.14119889544429,7.337515297702481e-09,2.675961554705386,7.327718931178591e-09,3.169962815827213,4.446327378599815e-09,5,5.647057452656243e-09,5,6.119247543763796e-09,5,6.29060187438945e-09,5,7.254048972982647e-09,5,7.179790924009233e-09,5,7.337515297702481e-09,5,7.327718931178591e-09,5,4.446327378599815e-09,4.446327378599815,5.647057452656243e-09,5,6.119247543763796e-09,5,6.29060187438945e-09,5,7.254048972982647e-09,5,7.179790924009233e-09,5,7.337515297702481e-09,5,7.327718931178591e-09,5
4.741421056183141e-09,1.307358387305977,5.939220406277333e-09,0.5123644588182915,6.559853817233525e-09,0.741517869571324,6.728714609894303e-09,1.143130016927137,7.867470238797158e-09,1.597837857800089,7.752846426790745e-09,2.130150183057581,7.946920219728017e-09,2.668092992189119,7.939319929218433e-09,3.163283812195814,4.741421056183141e-09,5,5.939220406277333e-09,5,6.559853817233525e-09,5,6.728714609894303e-09,5,7.867470238797158e-09,5,7.752846426790745e-09,5,7.946920219728017e-09,5,7.939319929218433e-09,5,4.741421056183141e-09,4.741421056183141,5.939220406277333e-09,5,6.559853817233525e-09,5,6.728714609894303e-09,5,7.867470238797158e-09,5,7.752846426790745e-09,5,7.946920219728017e-09,5,7.939319929218433e-09,5
5e-09,0.9745202556173811,6.366190162731406e-09,0.4367781084464637,7.025398831723974e-09,0.7153883823403686,7.217691624976053e-09,1.121728049985165,8.698122806640479e-09,1.596073904489429,8.481392734653024e-09,2.127226155042955,8.74827354187332e-09,2.665919911258154,8.721750552477372e-09,3.161153253267428,5e-09,5,6.366190162731406e-09,5,7.025398831723974e-09,5,7.217691624976053e-09,5,8.698122806640479e-09,5,8.481392734653024e-09,5,8.74827354187332e-09,5,8.721750552477372e-09,5,5e-09,5,6.366190162731406e-09,5,7.025398831723974e-09,5,7.217691624976053e-09,5,8.698122806640479e-09,5,8.481392734653024e-09,5,8.74827354187332e-09,5,8.721750552477372e-09,5
