/Z (w23=1e-05) X,/Z (w23=1e-05) Y,/Z (w23=2e-05) X,/Z (w23=2e-05) Y,/Z (w23=3e-05) X,/Z (w23=3e-05) Y,/w_A (w23=1e-05) X,/w_A (w23=1e-05) Y,/w_A (w23=2e-05) X,/w_A (w23=2e-05) Y,/w_A (w23=3e-05) X,/w_A (w23=3e-05) Y,/w_B (w23=1e-05) X,/w_B (w23=1e-05) Y,/w_B (w23=2e-05) X,/w_B (w23=2e-05) Y,/w_B (w23=3e-05) X,/w_B (w23=3e-05) Y
0,2.99999741821917,0,2.999997391410473,0,2.999997372018474,0,0,0,0,0,0,0,0,0,0,0,0
1.5625e-10,3.158590624179885,1.5625e-10,3.160929024069686,1.5625e-10,3.162226567845636,1.5625e-10,0.09375000000000001,1.5625e-10,0.09375000000000001,1.5625e-10,0.09375000000000001,1.5625e-10,0.1875,1.5625e-10,0.1875,1.5625e-10,0.1875
3.889272638539987e-10,3.348894251957072,3.889272638539987e-10,3.356123762425647,3.889272638539987e-10,3.360662311623549,3.889272638539987e-10,0.2333563583123992,3.889272638539987e-10,0.2333563583123992,3.889272638539987e-10,0.2333563583123992,3.889272638539987e-10,0.4667127166247984,3.889272638539987e-10,0.4667127166247984,3.889272638539987e-10,0.4667127166247984
7.794746403255435e-10,3.624954690111632,7.812359795626735e-10,3.637967781529505,7.830986415201318e-10,3.646829756682948,7.794746403255435e-10,0.4676847841953261,7.812359795626735e-10,0.468741587737604,7.830986415201318e-10,0.4698591849120791,7.794746403255435e-10,0.9353695683906522,7.812359795626735e-10,0.9374831754752081,7.830986415201318e-10,0.9397183698241581
1.107430194302428e-09,3.794467956555243,1.120781709804189e-09,3.809897354122882,1.132904409566385e-09,3.821168048710734,1.107430194302428e-09,0.664458116581457,1.120781709804189e-09,0.6724690258825137,1.132904409566385e-09,0.6797426457398307,1.107430194302428e-09,1.328916233162914,1.120781709804189e-09,1.344938051765027,1.132904409566385e-09,1.359485291479661
1.660704215085247e-09,3.976105787652425,1.657868644029032e-09,3.967725426885333,1.662073330066423e-09,3.96397300109598,1.660704215085247e-09,0.9964225290511484,1.657868644029032e-09,0.9947211864174191,1.662073330066423e-09,0.9972439980398535,1.660704215085247e-09,1.992845058102297,1.657868644029032e-09,1.989442372834838,1.662073330066423e-09,1.994487996079707
2.080352107542624e-09,4.043506512701435,2.078934322014516e-09,4.013282620991277,2.081036665033211e-09,3.995233652223441,2.080352107542624e-09,1.248211264525574,2.078934322014516e-09,1.24736059320871,2.081036665033211e-09,1.248621999019927,2.080352107542624e-09,2.496422529051148,2.078934322014516e-09,2.494721186417419,2.081036665033211e-09,2.497243998039854
2.5e-09,4.062256476576458,2.5e-09,4.006933977336227,2.5e-09,3.974143706810283,2.5e-09,1.5,2.5e-09,1.5,2.5e-09,1.5,2.5e-09,3,2.5e-09,3,2.5e-09,3
2.650593283083247e-09,3.912841720536718,2.651503659203199e-09,3.848372157387457,2.651734115835984e-09,3.810756028193,2.650593283083247e-09,1.590355969849948,2.651503659203199e-09,1.59090219552192,2.651734115835984e-09,1.59104046950159,2.650593283083247e-09,3,2.651503659203199e-09,3,2.651734115835984e-09,3
2.850162043215118e-09,3.729459408861205,2.854880441595142e-09,3.65428810424359,2.856693532855953e-09,3.611428368319678,2.850162043215118e-09,1.710097225929071,2.854880441595142e-09,1.712928264957085,2.856693532855953e-09,1.714016119713572,2.850162043215118e-09,3,2.854880441595142e-09,3,2.856693532855953e-09,3
3.03368548858534e-09,3.581968861747141,3.042165414077635e-09,3.502570032217904,3.045664739900759e-09,3.45827461433173,3.03368548858534e-09,1.820211293151204,3.042165414077635e-09,1.825299248446581,3.045664739900759e-09,1.827398843940455,3.03368548858534e-09,3,3.042165414077635e-09,3,3.045664739900759e-09,3
3.400732379325786e-09,3.323558742635847,3.41673535904262e-09,3.24477890292889,3.423607153990372e-09,3.202645294132032,3.400732379325786e-09,2.040439427595471,3.41673535904262e-09,2.050041215425572,3.423607153990372e-09,2.054164292394223,3.400732379325786e-09,3,3.41673535904262e-09,3,3.423607153990372e-09,3
3.873665880804799e-09,3.009388593510132,3.863491385220675e-09,2.960856872395241,3.855829217804087e-09,2.935252095882778,3.873665880804799e-09,2.324199528482879,3.863491385220675e-09,2.318094831132405,3.855829217804087e-09,2.313497530682452,3.873665880804799e-09,3,3.863491385220675e-09,3,3.855829217804087e-09,3
4.37943139387457e-09,2.63690500057296,4.352854091005178e-09,2.613694139150103,4.335822300449108e-09,2.602574148293024,4.37943139387457e-09,2.627658836324742,4.352854091005178e-09,2.611712454603107,4.335822300449108e-09,2.601493380269465,4.37943139387457e-09,3,4.352854091005178e-09,3,4.335822300449108e-09,3
4.689715696937285e-09,2.3775102937747,4.676427045502589e-09,2.348370885016645,4.667911150224555e-09,2.33316059220923,4.689715696937285e-09,2.813829418162371,4.676427045502589e-09,2.805856227301553,4.667911150224555e-09,2.800746690134733,4.689715696937285e-09,3,4.676427045502589e-09,3,4.667911150224555e-09,3
5e-09,2.100690476935673,5e-09,2.057867937956248,5e-09,2.033288550434385,5e-09,3,5e-09,3,5e-09,3,5e-09,3,5e-09,3,5e-09,3
5.193518636806542e-09,1.91738363014481,5.202505714747061e-09,1.859854280274131,5.208309664967688e-09,1.823329876214725,5.193518636806542e-09,3,5.202505714747061e-09,3,5.208309664967688e-09,3,5.193518636806542e-09,3,5.202505714747061e-09,3,5.208309664967688e-09,3
5.419565285570686e-09,1.709681269065946,5.438947143080415e-09,1.633875655748723,5.451458135277852e-09,1.583255694514126,5.419565285570686e-09,3,5.438947143080415e-09,3,5.451458135277852e-09,3,5.419565285570686e-09,3,5.438947143080415e-09,3,5.451458135277852e-09,3
5.637529675168847e-09,1.514578589075869,5.667013053611732e-09,1.419032466637576,5.686046701507186e-09,1.355716236135998,5.637529675168847e-09,3,5.667013053611732e-09,3,5.686046701507186e-09,3,5.637529675168847e-09,3,5.667013053611732e-09,3,5.686046701507186e-09,3
5.958156335879515e-09,1.259998886736199,6.002323326378294e-09,1.139493576424113,6.074772913162429e-09,1.028159762697134,5.958156335879515e-09,3,6.002323326378294e-09,3,6.074772913162429e-09,3,5.958156335879515e-09,3,6.002323326378294e-09,3,6.074772913162429e-09,3
6.34935999700148e-09,1.010755020099376,6.340420588414706e-09,0.9094876882591679,6.42871240203549e-09,0.7924823254797457,6.34935999700148e-09,3,6.340420588414706e-09,3,6.42871240203549e-09,3,6.34935999700148e-09,3,6.340420588414706e-09,3,6.42871240203549e-09,3
6.841312434385224e-09,0.7829189671557782,6.82254199292446e-09,0.666537973098121,6.914536906424162e-09,0.5588514076812434,6.841312434385224e-09,3,6.82254199292446e-09,3,6.914536906424162e-09,3,6.841312434385224e-09,3,6.82254199292446e-09,3,6.914536906424162e-09,3
7.552421012313848e-09,0.5730665433344156,7.461145308849797e-09,0.4592317091141858,7.62486693362567e-09,0.3482601797207826,7.552421012313848e-09,3,7.461145308849797e-09,3,7.62486693362567e-09,3,7.552421012313848e-09,3,7.461145308849797e-09,3,7.62486693362567e-09,3
8.329749069098278e-09,0.4466173427990801,8.23871938981475e-09,0.3182448983236967,8.292811761710401e-09,0.2406352838021013,8.329749069098278e-09,3,8.23871938981475e-09,3,8.292811761710401e-09,3,8.329749069098278e-09,3,8.23871938981475e-09,3,8.292811761710401e-09,3
9.169785432984419e-09,0.3769966402239801,8.912766945232192e-09,0.2549694251358465,8.928788277942045e-09,0.183360577529627,9.169785432984419e-09,3,8.912766945232192e-09,3,8.928788277942045e-09,3,9.169785432984419e-09,3,8.912766945232192e-09,3,8.928788277942045e-09,3
9.991631644366654e-09,0.3448638744139905,9.633659280671621e-09,0.2186010005236607,9.616022201528405e-09,0.1492215705487184,9.991631644366654e-09,3,9.633659280671621e-09,3,9.616022201528405e-09,3,9.991631644366654e-09,3,9.633659280671621e-09,3,9.616022201528405e-09,3
1.094610414342317e-08,0.3281801664346847,1.045593705360993e-08,0.1981923233291963,1.046384852988946e-08,0.1279145162376544,1.094610414342317e-08,3,1.045593705360993e-08,3,1.046384852988946e-08,3,1.094610414342317e-08,3,1.045593705360993e-08,3,1.046384852988946e-08,3
1.213367479106811e-08,0.3207469543091608,1.156238864941549e-08,0.1867609188422385,1.157435655336012e-08,0.1163692708111379,1.213367479106811e-08,3,1.156238864941549e-08,3,1.157435655336012e-08,3,1.213367479106811e-08,3,1.156238864941549e-08,3,1.157435655336012e-08,3
1.381254172574818e-08,0.3182265864283104,1.30586027775458e-08,0.1823713799082797,1.310389580831356e-08,0.1116827007929833,1.381254172574818e-08,3,1.30586027775458e-08,3,1.310389580831356e-08,3,1.381254172574818e-08,3,1.30586027775458e-08,3,1.310389580831356e-08,3
1.632111528877635e-08,0.3180143420115574,1.530086019364607e-08,0.1814506187072355,1.529771834965013e-08,0.1106955392437221,1.632111528877635e-08,3,1.530086019364607e-08,3,1.529771834965013e-08,3,1.632111528877635e-08,3,1.530086019364607e-08,3,1.529771834965013e-08,3
2.041718067701608e-08,0.3180852053343352,1.871111115271672e-08,0.1815442402806154,1.87904941700685e-08,0.1107236850136545,2.041718067701608e-08,3,1.871111115271672e-08,3,1.87904941700685e-08,3,2.041718067701608e-08,3,1.871111115271672e-08,3,1.87904941700685e-08,3
2.798548574890842e-08,0.3180747031962258,2.467684220609297e-08,0.1815281398812224,2.475689889167005e-08,0.1107349407383096,2.798548574890842e-08,3,2.467684220609297e-08,3,2.475689889167005e-08,3,2.798548574890842e-08,3,2.467684220609297e-08,3,2.475689889167005e-08,3
4.312209589269309e-08,0.3180789573238851,3.660830431284547e-08,0.1815437839076889,3.668970833487314e-08,0.1107298426239953,4.312209589269309e-08,3,3.660830431284547e-08,3,3.668970833487314e-08,3,4.312209589269309e-08,3,3.660830431284547e-08,3,3.668970833487314e-08,3
7.339531618026244e-08,0.3180771401276448,6.047122852635047e-08,0.1815303416129796,6.055532722127933e-08,0.1107345899240485,7.339531618026244e-08,3,6.047122852635047e-08,3,6.055532722127933e-08,3,7.339531618026244e-08,3,6.047122852635047e-08,3,6.055532722127933e-08,3
1.246688521763729e-07,0.318077886358571,9.99844426430096e-08,0.1815428102645937,1.025489139727988e-07,0.1107300073506056,1.246688521763729e-07,3,9.99844426430096e-08,3,1.025489139727988e-07,3,1.246688521763729e-07,3,9.99844426430096e-08,3,1.025489139727988e-07,3
1.846688521763729e-07,0.3180777910486592,1.599844426430096e-07,0.181530884583261,1.625489139727988e-07,0.1107344907598374,1.846688521763729e-07,3,1.599844426430096e-07,3,1.625489139727988e-07,3,1.846688521763729e-07,3,1.599844426430096e-07,3,1.625489139727988e-07,3
2.185844260881865e-07,0.3180771510297342,2.062422213215048e-07,0.1815423562244367,2.075244569863994e-07,0.110730100668166,2.185844260881865e-07,3,2.062422213215048e-07,3,2.075244569863994e-07,3,2.185844260881865e-07,3,2.062422213215048e-07,3,2.075244569863994e-07,3
2.525e-07,0.3180786271828513,2.525e-07,0.1815313631205013,2.525e-07,0.1107343861082968,2.525e-07,3,2.525e-07,3,2.525e-07,3,2.525e-07,3,2.525e-07,3,2.525e-07,3
2.53125e-07,-0.05575991512078717,2.53125e-07,-0.2120692145154306,2.53125e-07,-0.2972638339804261,2.53125e-07,3,2.53125e-07,3,2.53125e-07,3,2.53125e-07,2.250000000000007,2.53125e-07,2.250000000000007,2.53125e-07,2.250000000000007
2.539443400869149e-07,-0.3777113623953959,2.53957791708101e-07,-0.5716992934173887,2.539663120779645e-07,-0.6858639338431863,2.539443400869149e-07,3,2.53957791708101e-07,3,2.539663120779645e-07,3,2.539443400869149e-07,1.266791895702045,2.53957791708101e-07,1.250649950278788,2.539663120779645e-07,1.240425506442599
2.542082550651862e-07,-0.4182332556012736,2.542183437810757e-07,-0.6264615979907175,2.549999999999999e-07,-0.9394481596597878,2.542082550651862e-07,3,2.542183437810757e-07,3,2.549999999999999e-07,3,2.542082550651862e-07,0.9500939217765247,2.542183437810757e-07,0.9379874627090663,2.549999999999999e-07,0
2.54604127532593e-07,-0.458083134737474,2.546091718905378e-07,-0.6931334915707517,2.552037844935159e-07,-0.7737530141157556,2.54604127532593e-07,3,2.546091718905378e-07,3,2.552037844935159e-07,3,2.54604127532593e-07,0.4750469608883088,2.546091718905378e-07,0.4689937313545793,2.552037844935159e-07,0
2.547030956494448e-07,-0.4706252175769476,2.549999999999999e-07,-0.7836042023845285,2.555435287399247e-07,-0.4495226683786271,2.547030956494448e-07,3,2.549999999999999e-07,3,2.555435287399247e-07,3,2.547030956494448e-07,0.3562852206662543,2.549999999999999e-07,0,2.555435287399247e-07,0
2.548515478247223e-07,-0.5105340631764045,2.551021656692882e-07,-0.7030156595145823,2.558533986503432e-07,-0.007747141103560774,2.548515478247223e-07,3,2.551021656692882e-07,3,2.558533986503432e-07,3,2.548515478247223e-07,0.1781426103331416,2.551021656692882e-07,0,2.558533986503432e-07,0
2.549999999999999e-07,-0.5360034314612193,2.552882394197871e-07,-0.5444062676818876,2.561758351563783e-07,0.4229757699957047,2.549999999999999e-07,3,2.552882394197871e-07,3,2.561758351563783e-07,3,2.549999999999999e-07,0,2.552882394197871e-07,0,2.561758351563783e-07,0
2.550487531369013e-07,-0.4685689128524003,2.55458664895613e-07,-0.3226876203034494,2.564494944339971e-07,0.7234552894559387,2.550487531369013e-07,3,2.55458664895613e-07,3,2.564494944339971e-07,3,2.550487531369013e-07,0,2.55458664895613e-07,0,2.564494944339971e-07,0
2.55140526511426e-07,-0.295737494004833,2.556573486021149e-07,0.02892082503830878,2.568505605316043e-07,1.086422730546832,2.55140526511426e-07,3,2.556573486021149e-07,3,2.568505605316043e-07,3,2.55140526511426e-07,0,2.556573486021149e-07,0,2.568505605316043e-07,0
2.552334528872028e-07,-0.1022423507254741,2.558212517071294e-07,0.2834844254038168,2.573951490176301e-07,1.472028086492676,2.552334528872028e-07,3,2.558212517071294e-07,3,2.573951490176301e-07,3,2.552334528872028e-07,0,2.558212517071294e-07,0,2.573951490176301e-07,0
2.553501678574162e-07,0.1211045001018407,2.559929894411724e-07,0.5186488836206319,2.580545835141527e-07,1.824412177417712,2.553501678574162e-07,3,2.559929894411724e-07,3,2.580545835141527e-07,3,2.553501678574162e-07,0,2.559929894411724e-07,0,2.580545835141527e-07,0
2.55489526639836e-07,0.3595599265213629,2.563364649092584e-07,0.9138798209105345,2.5882586763379e-07,2.129372205433394,2.55489526639836e-07,3,2.563364649092584e-07,3,2.5882586763379e-07,3,2.55489526639836e-07,0,2.563364649092584e-07,0,2.5882586763379e-07,0
2.557682442046756e-07,0.7631427414662953,2.567971129559411e-07,1.32627356231695,2.597411820957838e-07,2.390536246270424,2.557682442046756e-07,3,2.567971129559411e-07,3,2.597411820957838e-07,3,2.557682442046756e-07,0,2.567971129559411e-07,0,2.597411820957838e-07,0
2.561506657004844e-07,1.196555792373659,2.573425334196286e-07,1.694508837944309,2.60845334753062e-07,2.607582412552948,2.561506657004844e-07,3,2.573425334196286e-07,3,2.60845334753062e-07,3,2.561506657004844e-07,0,2.573425334196286e-07,0,2.60845334753062e-07,0
2.565958039765501e-07,1.578533190202196,2.57965847913855e-07,2.008190786927622,2.62183411527281e-07,2.775473200703101,2.565958039765501e-07,3,2.57965847913855e-07,3,2.62183411527281e-07,3,2.565958039765501e-07,0,2.57965847913855e-07,0,2.62183411527281e-07,0
2.571028943075027e-07,1.904893607789112,2.58704608377517e-07,2.280529325476225,2.637891036296756e-07,2.890763371431596,2.571028943075027e-07,3,2.58704608377517e-07,3,2.637891036296756e-07,3,2.571028943075027e-07,0,2.58704608377517e-07,0,2.637891036296756e-07,0
2.576974480549931e-07,2.187547995581468,2.595931178600722e-07,2.51160382140751,2.656841383588936e-07,2.958581359086933,2.576974480549931e-07,3,2.595931178600722e-07,3,2.656841383588936e-07,3,2.576974480549931e-07,0,2.595931178600722e-07,0,2.656841383588936e-07,0
2.584088065660318e-07,2.429465564451392,2.60668572919973e-07,2.697372275617695,2.679176486570066e-07,2.992127613699272,2.584088065660318e-07,3,2.60668572919973e-07,3,2.679176486570066e-07,3,2.584088065660318e-07,0,2.60668572919973e-07,0,2.679176486570066e-07,0
2.592636319711598e-07,2.627118681732589,2.61960250815904e-07,2.833361962804279,2.706299443304206e-07,3.005397370012982,2.592636319711598e-07,3,2.61960250815904e-07,3,2.706299443304206e-07,3,2.592636319711598e-07,0,2.61960250815904e-07,0,2.706299443304206e-07,0
2.602864411626262e-07,2.777041708314016,2.634951992203833e-07,2.921656401025922,2.741047691309311e-07,3.007837231922639,2.602864411626262e-07,3,2.634951992203833e-07,3,2.741047691309311e-07,3,2.602864411626262e-07,0,2.634951992203833e-07,0,2.741047691309311e-07,0
2.615008359436991e-07,2.880427965729838,2.653091502800641e-07,2.971607074458161,2.789309327603212e-07,3.006221445084461,2.615008359436991e-07,3,2.653091502800641e-07,3,2.789309327603212e-07,3,2.615008359436991e-07,0,2.653091502800641e-07,0,2.789309327603212e-07,0
2.629376741184145e-07,2.94452612430428,2.674896503354351e-07,2.9957394532591,2.860759068277123e-07,3.004097647197712,2.629376741184145e-07,3,2.674896503354351e-07,3,2.860759068277123e-07,3,2.629376741184145e-07,0,2.674896503354351e-07,0,2.860759068277123e-07,0
2.646586013314216e-07,2.979995293251072,2.702179758481545e-07,3.00469404191985,2.977214919500185e-07,3.002486287139428,2.646586013314216e-07,3,2.702179758481545e-07,3,2.977214919500185e-07,3,2.646586013314216e-07,0,2.702179758481545e-07,0,2.977214919500185e-07,0
2.667849431532648e-07,2.996887493829003,2.7382718046039e-07,3.006014939004783,3.129493665960559e-07,3.001657846338467,2.667849431532648e-07,3,2.7382718046039e-07,3,3.129493665960559e-07,3,2.667849431532648e-07,0,2.7382718046039e-07,0,3.129493665960559e-07,0
2.695317902994077e-07,3.002969311254835,2.789475015897019e-07,3.004644789059054,3.338352768826237e-07,3.001034141229003,2.695317902994077e-07,3,2.789475015897019e-07,3,3.338352768826237e-07,3,2.695317902994077e-07,0,2.789475015897019e-07,0,3.338352768826237e-07,0
2.732797048590176e-07,3.003852387793532,2.870124262390965e-07,3.003097287289053,3.630677546727443e-07,3.000604107771678,2.732797048590176e-07,3,2.870124262390965e-07,3,3.630677546727443e-07,3,2.732797048590176e-07,0,2.870124262390965e-07,0,3.630677546727443e-07,0
2.78788828097606e-07,3.003127518271113,2.998566315773552e-07,3.002030222059049,4.049855545218698e-07,3.000322982731798,2.78788828097606e-07,3,2.998566315773552e-07,3,4.049855545218698e-07,3,2.78788828097606e-07,0,2.998566315773552e-07,0,4.049855545218698e-07,0
2.879366412304229e-07,3.00228745873792,3.175034997190098e-07,3.001292431215257,4.597662127716521e-07,3.000192365879324,2.879366412304229e-07,3,3.175034997190098e-07,3,4.597662127716521e-07,3,2.879366412304229e-07,0,3.175034997190098e-07,0,4.597662127716521e-07,0
3.047809076115631e-07,3.001395059351886,3.426722705325065e-07,3.000734310215326,5e-07,3.000136605266133,3.047809076115631e-07,3,3.426722705325065e-07,3,5e-07,3,3.047809076115631e-07,0,3.426722705325065e-07,0,5e-07,0
3.294911342561509e-07,3.000742480875891,3.777781342230826e-07,3.000398876895085,5.00625e-07,3.467305943902096,3.294911342561509e-07,3,3.777781342230826e-07,3,5.00625e-07,3,3.294911342561509e-07,0,3.777781342230826e-07,0,5.00625e-07,0.7499999999999928
3.629557080521584e-07,3.000387686288545,4.237110133160106e-07,3.000229828419796,5.014663120779645e-07,3.65944418775832,3.629557080521584e-07,3,4.237110133160106e-07,3,5.014663120779645e-07,3,3.629557080521584e-07,0,4.237110133160106e-07,0,5.014663120779645e-07,1.759574493557401
4.038011899539844e-07,3.000238156311503,4.618555066580053e-07,3.000162674865532,5.017247340584734e-07,3.536509300701809,4.038011899539844e-07,3,4.618555066580053e-07,3,5.017247340584734e-07,3,4.038011899539844e-07,0,4.618555066580053e-07,0,5.017247340584734e-07,2.069680870168075
4.57670553313144e-07,3.000142736334112,5e-07,3.000129425373435,5.021123670292367e-07,3.182265993914403,4.57670553313144e-07,3,5e-07,3,5.021123670292367e-07,3,4.57670553313144e-07,0,5e-07,0,5.021123670292367e-07,2.534840435084087
5e-07,3.000113162148027,5.00625e-07,3.461589004340014,5.025e-07,2.715927863912503,5e-07,3,5.00625e-07,3,5.025e-07,3,5e-07,0,5.00625e-07,0.7499999999999928,5.025e-07,2.999999999999971
5.00625e-07,3.452974382344626,5.01457791708101e-07,3.660501297244259,5.026306114850328e-07,2.430962321296686,5.00625e-07,3,5.01457791708101e-07,3,5.026306114850328e-07,3,5.00625e-07,0.7499999999999928,5.01457791708101e-07,1.749350049721212,5.026306114850328e-07,3
