/Z (w01=3e-05) X,/Z (w01=3e-05) Y,/Z (w01=4e-05) X,/Z (w01=4e-05) Y,/Z (w01=5e-05) X,/Z (w01=5e-05) Y,/w_A (w01=3e-05) X,/w_A (w01=3e-05) Y,/w_A (w01=4e-05) X,/w_A (w01=4e-05) Y,/w_A (w01=5e-05) X,/w_A (w01=5e-05) Y,/w_B (w01=3e-05) X,/w_B (w01=3e-05) Y,/w_B (w01=4e-05) X,/w_B (w01=4e-05) Y,/w_B (w01=5e-05) X,/w_B (w01=5e-05) Y
0,2.999998054655015,0,2.99999741821917,0,2.999996781792693,0,0,0,0,0,0,0,0,0,0,0,0
1.5625e-10,3.151308056701995,1.5625e-10,3.158590624179885,1.5625e-10,3.163433528770542,1.5625e-10,0.09375000000000001,1.5625e-10,0.09375000000000001,1.5625e-10,0.09375000000000001,1.5625e-10,0.1875,1.5625e-10,0.1875,1.5625e-10,0.1875
3.889272638539987e-10,3.32347525648267,3.889272638539987e-10,3.348894251957072,3.889272638539987e-10,3.366674839727851,3.889272638539987e-10,0.2333563583123992,3.889272638539987e-10,0.2333563583123992,3.889272638539987e-10,0.2333563583123992,3.889272638539987e-10,0.4667127166247984,3.889272638539987e-10,0.4667127166247984,3.889272638539987e-10,0.4667127166247984
7.696191393063003e-10,3.558951550399766,7.794746403255435e-10,3.624954690111632,7.882752058051953e-10,3.6749535422056,7.696191393063003e-10,0.4617714835837801,7.794746403255435e-10,0.4676847841953261,7.882752058051953e-10,0.4729651234831172,7.696191393063003e-10,0.9235429671675602,7.794746403255435e-10,0.9353695683906522,7.882752058051953e-10,0.9459302469662344
1.078109373816237e-09,3.688037415479376,1.107430194302428e-09,3.794467956555243,1.134415598434971e-09,3.880245143663539,1.078109373816237e-09,0.6468656242897425,1.107430194302428e-09,0.664458116581457,1.134415598434971e-09,0.6806493590609825,1.078109373816237e-09,1.293731248579485,1.107430194302428e-09,1.328916233162914,1.134415598434971e-09,1.361298718121965
1.612554327146417e-09,3.815315284611585,1.660704215085247e-09,3.976105787652425,1.70925328683684e-09,4.111350440563228,1.612554327146417e-09,0.9675325962878504,1.660704215085247e-09,0.9964225290511484,1.70925328683684e-09,1.025551972102104,1.612554327146417e-09,1.935065192575701,1.660704215085247e-09,1.992845058102297,1.70925328683684e-09,2.051103944204208
2.056277163573209e-09,3.853635189297192,2.080352107542624e-09,4.043506512701435,2.5e-09,4.225435170985794,2.056277163573209e-09,1.233766298143925,2.080352107542624e-09,1.248211264525574,2.5e-09,1.5,2.056277163573209e-09,2.46753259628785,2.080352107542624e-09,2.496422529051148,2.5e-09,3
2.5e-09,3.850233651095636,2.5e-09,4.062256476576458,2.642943518794919e-09,4.080156039719216,2.5e-09,1.5,2.5e-09,1.5,2.642943518794919e-09,1.585766111276951,2.5e-09,3,2.5e-09,3,2.642943518794919e-09,3
2.652798829666725e-09,3.702801294201189,2.650593283083247e-09,3.912841720536718,2.914046544775842e-09,3.825532888617557,2.652798829666725e-09,1.591679297800035,2.650593283083247e-09,1.590355969849948,2.914046544775842e-09,1.748427926865505,2.652798829666725e-09,3,2.650593283083247e-09,3,2.914046544775842e-09,3
2.858212376959507e-09,3.524180316499861,2.850162043215118e-09,3.729459408861205,3.156821564749943e-09,3.624835592903494,2.858212376959507e-09,1.714927426175704,2.850162043215118e-09,1.710097225929071,3.156821564749943e-09,1.894092938849966,2.858212376959507e-09,3,2.850162043215118e-09,3,3.156821564749943e-09,3
3.046561542617056e-09,3.388163643709062,3.03368548858534e-09,3.581968861747141,3.642371604698145e-09,3.255032496752343,3.046561542617056e-09,1.827936925570234,3.03368548858534e-09,1.820211293151204,3.642371604698145e-09,2.185422962818887,3.046561542617056e-09,3,3.03368548858534e-09,3,3.642371604698145e-09,3
3.423259873932152e-09,3.161487396495526,3.400732379325786e-09,3.323558742635847,4.150063147754049e-09,2.854205428522135,3.423259873932152e-09,2.053955924359291,3.400732379325786e-09,2.040439427595471,4.150063147754049e-09,2.490037888652429,3.423259873932152e-09,3,3.400732379325786e-09,3,4.150063147754049e-09,3
3.854269589785672e-09,2.924377307870777,3.873665880804799e-09,3.009388593510132,4.575031573877025e-09,2.477144886595572,3.854269589785672e-09,2.312561753871403,3.873665880804799e-09,2.324199528482879,4.575031573877025e-09,2.745018944326215,3.854269589785672e-09,3,3.873665880804799e-09,3,4.575031573877025e-09,3
4.336167488508877e-09,2.627836428679172,4.37943139387457e-09,2.63690500057296,5e-09,2.071122903912334,4.336167488508877e-09,2.601700493105326,4.37943139387457e-09,2.627658836324742,5e-09,3,4.336167488508877e-09,3,4.37943139387457e-09,3,5e-09,3
4.668083744254438e-09,2.389863505431604,4.689715696937285e-09,2.3775102937747,5.215394081799598e-09,1.855003321428928,4.668083744254438e-09,2.800850246552663,4.689715696937285e-09,2.813829418162371,5.215394081799598e-09,3,4.668083744254438e-09,3,4.689715696937285e-09,3,5.215394081799598e-09,3
5e-09,2.127178949850459,5e-09,2.100690476935673,5.483637527524789e-09,1.59756251048194,5e-09,3,5e-09,3,5.483637527524789e-09,3,5e-09,3,5e-09,3,5.483637527524789e-09,3
5.199344227687789e-09,1.955597951344914,5.193518636806542e-09,1.91738363014481,5.738023289041212e-09,1.368394784227027,5.199344227687789e-09,3,5.193518636806542e-09,3,5.738023289041212e-09,3,5.199344227687789e-09,3,5.193518636806542e-09,3,5.738023289041212e-09,3
5.433329008930585e-09,1.759071654491232,5.419565285570686e-09,1.709681269065946,6.108108652884871e-09,1.089811345856875,5.433329008930585e-09,3,5.419565285570686e-09,3,6.108108652884871e-09,3,5.433329008930585e-09,3,5.419565285570686e-09,3,6.108108652884871e-09,3
5.658107413947225e-09,1.571882029681579,5.637529675168847e-09,1.514578589075869,6.487394539728745e-09,0.870658661440484,5.658107413947225e-09,3,5.637529675168847e-09,3,6.487394539728745e-09,3,5.658107413947225e-09,3,5.637529675168847e-09,3,6.487394539728745e-09,3
5.986198738945819e-09,1.326126281398367,5.958156335879515e-09,1.259998886736199,7.078290000429932e-09,0.6348164961241767,5.986198738945819e-09,3,5.958156335879515e-09,3,7.078290000429932e-09,3,5.986198738945819e-09,3,5.958156335879515e-09,3,7.078290000429932e-09,3
6.385494604507542e-09,1.082633844268907,6.34935999700148e-09,1.010755020099376,7.85109631754562e-09,0.4538564189814676,6.385494604507542e-09,3,6.34935999700148e-09,3,7.85109631754562e-09,3,6.385494604507542e-09,3,6.34935999700148e-09,3,7.85109631754562e-09,3
6.880133440626801e-09,0.8599662236653908,6.841312434385224e-09,0.7829189671557782,8.627591836336962e-09,0.3591519079232641,6.880133440626801e-09,3,6.841312434385224e-09,3,8.627591836336962e-09,3,6.880133440626801e-09,3,6.841312434385224e-09,3,8.627591836336962e-09,3
7.58776018582696e-09,0.6537695754905585,7.552421012313848e-09,0.5730665433344156,9.444499535030785e-09,0.308983000083137,7.58776018582696e-09,3,7.552421012313848e-09,3,9.444499535030785e-09,3,7.58776018582696e-09,3,7.552421012313848e-09,3,9.444499535030785e-09,3
8.420267859203232e-09,0.5201201575003405,8.329749069098278e-09,0.4466173427990801,1.029801066328466e-08,0.2845107518659895,8.420267859203232e-09,3,8.329749069098278e-09,3,1.029801066328466e-08,3,8.420267859203232e-09,3,8.329749069098278e-09,3,1.029801066328466e-08,3
9.257131855610499e-09,0.453609393180775,9.169785432984419e-09,0.3769966402239801,1.134019142635794e-08,0.2719354980853805,9.257131855610499e-09,3,9.169785432984419e-09,3,1.134019142635794e-08,3,9.257131855610499e-09,3,9.169785432984419e-09,3,1.134019142635794e-08,3
1.009044958935937e-08,0.4223204671396658,9.991631644366654e-09,0.3448638744139905,1.269135921102825e-08,0.2668129186444995,1.009044958935937e-08,3,9.991631644366654e-09,3,1.269135921102825e-08,3,1.009044958935937e-08,3,9.991631644366654e-09,3,1.269135921102825e-08,3
1.104399560119824e-08,0.406652987792514,1.094610414342317e-08,0.3281801664346847,1.465103062102277e-08,0.2654708400252311,1.104399560119824e-08,3,1.094610414342317e-08,3,1.465103062102277e-08,3,1.104399560119824e-08,3,1.094610414342317e-08,3,1.465103062102277e-08,3
1.22607656479775e-08,0.3996344118043978,1.213367479106811e-08,0.3207469543091608,1.772399950760763e-08,0.2655061688021424,1.22607656479775e-08,3,1.213367479106811e-08,3,1.772399950760763e-08,3,1.22607656479775e-08,3,1.213367479106811e-08,3,1.772399950760763e-08,3
1.397291228860407e-08,0.3974832730741822,1.381254172574818e-08,0.3182265864283104,2.286003541297841e-08,0.2655230494925469,1.397291228860407e-08,3,1.381254172574818e-08,3,2.286003541297841e-08,3,1.397291228860407e-08,3,1.381254172574818e-08,3,2.286003541297841e-08,3
1.65900319051956e-08,0.3973674309539681,1.632111528877635e-08,0.3180143420115574,3.313210722371997e-08,0.2655224867771642,1.65900319051956e-08,3,1.632111528877635e-08,3,3.313210722371997e-08,3,1.65900319051956e-08,3,1.632111528877635e-08,3,3.313210722371997e-08,3
2.078364352794607e-08,0.3974456044469651,2.041718067701608e-08,0.3180852053343352,5.36762508452031e-08,0.2655216790677588,2.078364352794607e-08,3,2.041718067701608e-08,3,5.36762508452031e-08,3,2.078364352794607e-08,3,2.041718067701608e-08,3,5.36762508452031e-08,3
2.88642022949169e-08,0.3974216208224172,2.798548574890842e-08,0.3180747031962258,9.435550119668522e-08,0.2655230476729376,2.88642022949169e-08,3,2.798548574890842e-08,3,9.435550119668522e-08,3,2.88642022949169e-08,3,2.798548574890842e-08,3,9.435550119668522e-08,3
4.502531982885856e-08,0.39743839360894,4.312209589269309e-08,0.3180789573238851,1.543555011966852e-07,0.2655213988233979,4.502531982885856e-08,3,4.312209589269309e-08,3,1.543555011966852e-07,3,4.502531982885856e-08,3,4.312209589269309e-08,3,1.543555011966852e-07,3
7.672545193742877e-08,0.3974244517494471,7.339531618026244e-08,0.3180771401276448,2.034277505983426e-07,0.2655232788537124,7.672545193742877e-08,3,7.339531618026244e-08,3,2.034277505983426e-07,3,7.672545193742877e-08,3,7.339531618026244e-08,3,2.034277505983426e-07,3
1.267708347424224e-07,0.3974370102182221,1.246688521763729e-07,0.318077886358571,2.525e-07,0.2655211621615222,1.267708347424224e-07,3,1.246688521763729e-07,3,2.525e-07,3,1.267708347424224e-07,3,1.246688521763729e-07,3,2.525e-07,3
1.867708347424225e-07,0.3974253470082117,1.846688521763729e-07,0.3180777910486592,2.53125e-07,-0.1222903769241983,1.867708347424225e-07,3,1.846688521763729e-07,3,2.53125e-07,3,1.867708347424225e-07,3,1.846688521763729e-07,3,2.53125e-07,2.250000000000007
2.196354173712112e-07,0.3974359659262328,2.185844260881865e-07,0.3180771510297342,2.539456078251275e-07,-0.4748813443537336,2.196354173712112e-07,3,2.185844260881865e-07,3,2.539456078251275e-07,3,2.196354173712112e-07,3,2.185844260881865e-07,3,2.539456078251275e-07,1.265270609846921
2.525e-07,0.3974265797269166,2.525e-07,0.3180786271828513,2.542092058688456e-07,-0.5316549577045873,2.525e-07,3,2.525e-07,3,2.542092058688456e-07,3,2.525e-07,3,2.525e-07,3,2.542092058688456e-07,0.9489529573852296
2.53125e-07,0.04467483518000374,2.53125e-07,-0.05575991512078717,2.546046029344227e-07,-0.6025025802915059,2.53125e-07,3,2.53125e-07,3,2.546046029344227e-07,3,2.53125e-07,2.250000000000007,2.53125e-07,2.250000000000007,2.546046029344227e-07,0.4744764786926612
2.539421376292029e-07,-0.2280706932627896,2.539443400869149e-07,-0.3777113623953959,2.549999999999999e-07,-0.7216683704911603,2.539421376292029e-07,3,2.539443400869149e-07,3,2.549999999999999e-07,3,2.539421376292029e-07,1.269434844956486,2.539443400869149e-07,1.266791895702045,2.549999999999999e-07,0
2.545123471314667e-07,-0.2222651509567103,2.542082550651862e-07,-0.4182332556012736,2.551017543481437e-07,-0.6475816131873831,2.545123471314667e-07,3,2.542082550651862e-07,3,2.551017543481437e-07,3,2.545123471314667e-07,0.5851834422398889,2.542082550651862e-07,0.9500939217765247,2.551017543481437e-07,0
2.546342603486001e-07,-0.2086863973109542,2.54604127532593e-07,-0.458083134737474,2.551478715004483e-07,-0.6136343535114306,2.546342603486001e-07,3,2.54604127532593e-07,3,2.551478715004483e-07,3,2.546342603486001e-07,0.4388875816798921,2.54604127532593e-07,0.4750469608883088,2.551478715004483e-07,0
2.548171301743e-07,-0.1629642365576032,2.547030956494448e-07,-0.4706252175769476,2.552401058050574e-07,-0.5313194642878635,2.548171301743e-07,3,2.547030956494448e-07,3,2.552401058050574e-07,3,2.548171301743e-07,0.2194437908399922,2.547030956494448e-07,0.3562852206662543,2.552401058050574e-07,0
2.54862847630725e-07,-0.1352961676449529,2.548515478247223e-07,-0.5105340631764045,2.552790789774789e-07,-0.4837398527479121,2.54862847630725e-07,3,2.548515478247223e-07,3,2.552790789774789e-07,3,2.54862847630725e-07,0.1645828431299856,2.548515478247223e-07,0.1781426103331416,2.552790789774789e-07,0
2.549314238153624e-07,-0.07005954115127583,2.549999999999999e-07,-0.5360034314612193,2.55357025322322e-07,-0.3590464239386039,2.549314238153624e-07,3,2.549999999999999e-07,3,2.55357025322322e-07,3,2.549314238153624e-07,0.08229142156503899,2.549999999999999e-07,0,2.55357025322322e-07,0
2.549999999999999e-07,0.009121417161459942,2.550487531369013e-07,-0.4685689128524003,2.555129180120081e-07,-0.07403277566730991,2.549999999999999e-07,3,2.550487531369013e-07,3,2.555129180120081e-07,3,2.549999999999999e-07,0,2.550487531369013e-07,0,2.555129180120081e-07,0
2.5506225190055e-07,0.1365707195504238,2.55140526511426e-07,-0.295737494004833,2.55639870921439e-07,0.1398066189278191,2.5506225190055e-07,3,2.55140526511426e-07,3,2.55639870921439e-07,3,2.5506225190055e-07,0,2.55140526511426e-07,0,2.55639870921439e-07,0
2.551336774645192e-07,0.278106979133495,2.552334528872028e-07,-0.1022423507254741,2.558002049827502e-07,0.381381916030551,2.551336774645192e-07,3,2.552334528872028e-07,3,2.558002049827502e-07,3,2.551336774645192e-07,0,2.552334528872028e-07,0,2.558002049827502e-07,0
2.55205441631667e-07,0.4109304714611824,2.553501678574162e-07,0.1211045001018407,2.561208731053728e-07,0.7888993280052715,2.55205441631667e-07,3,2.553501678574162e-07,3,2.561208731053728e-07,3,2.55205441631667e-07,0,2.553501678574162e-07,0,2.561208731053728e-07,0
2.553489699659627e-07,0.6518244340175054,2.55489526639836e-07,0.3595599265213629,2.565526724828895e-07,1.217309029696735,2.553489699659627e-07,3,2.55489526639836e-07,3,2.565526724828895e-07,3,2.553489699659627e-07,0,2.55489526639836e-07,0,2.565526724828895e-07,0
2.556360266345541e-07,1.053920746626665,2.557682442046756e-07,0.7631427414662953,2.570581357831041e-07,1.596588441578614,2.556360266345541e-07,3,2.557682442046756e-07,3,2.570581357831041e-07,3,2.556360266345541e-07,0,2.557682442046756e-07,0,2.570581357831041e-07,0
2.560116774865326e-07,1.459985716513139,2.561506657004844e-07,1.196555792373659,2.576330240193415e-07,1.919367178656658,2.560116774865326e-07,3,2.561506657004844e-07,3,2.576330240193415e-07,3,2.560116774865326e-07,0,2.561506657004844e-07,0,2.576330240193415e-07,0
2.564484444736138e-07,1.814081794799411,2.565958039765501e-07,1.578533190202196,2.583089406709183e-07,2.198832869370434,2.564484444736138e-07,3,2.565958039765501e-07,3,2.583089406709183e-07,3,2.564484444736138e-07,0,2.565958039765501e-07,0,2.583089406709183e-07,0
2.569456666192732e-07,2.112748786247667,2.571028943075027e-07,1.904893607789112,2.591169201070869e-07,2.436803400520865,2.569456666192732e-07,3,2.571028943075027e-07,3,2.591169201070869e-07,3,2.569456666192732e-07,0,2.571028943075027e-07,0,2.591169201070869e-07,0
2.57534085926147e-07,2.368906633543379,2.576974480549931e-07,2.187547995581468,2.600879319137704e-07,2.630412940810043,2.57534085926147e-07,3,2.576974480549931e-07,3,2.600879319137704e-07,3,2.57534085926147e-07,0,2.576974480549931e-07,0,2.600879319137704e-07,0
2.582398111894925e-07,2.58191098962631,2.584088065660318e-07,2.429465564451392,2.612482912684811e-07,2.776711823522112,2.582398111894925e-07,3,2.584088065660318e-07,3,2.612482912684811e-07,3,2.582398111894925e-07,0,2.584088065660318e-07,0,2.612482912684811e-07,0
2.590884207356041e-07,2.747959019452122,2.592636319711598e-07,2.627118681732589,2.62625973938359e-07,2.877824774648033,2.590884207356041e-07,3,2.592636319711598e-07,3,2.62625973938359e-07,3,2.590884207356041e-07,0,2.592636319711598e-07,0,2.62625973938359e-07,0
2.600983224845224e-07,2.865099597381934,2.602864411626262e-07,2.777041708314016,2.642606889309692e-07,2.941231528815487,2.600983224845224e-07,3,2.602864411626262e-07,3,2.642606889309692e-07,3,2.600983224845224e-07,0,2.602864411626262e-07,0,2.642606889309692e-07,0
2.61289610699634e-07,2.938653722040284,2.615008359436991e-07,2.880427965729838,2.662302623940272e-07,2.977048506710093,2.61289610699634e-07,3,2.615008359436991e-07,3,2.662302623940272e-07,3,2.61289610699634e-07,0,2.615008359436991e-07,0,2.662302623940272e-07,0
2.626998299157815e-07,2.97938774001637,2.629376741184145e-07,2.94452612430428,2.6867730702276e-07,2.994615428369241,2.626998299157815e-07,3,2.629376741184145e-07,3,2.6867730702276e-07,3,2.626998299157815e-07,0,2.629376741184145e-07,0,2.6867730702276e-07,0
2.644141469119824e-07,2.998724606543508,2.646586013314216e-07,2.979995293251072,2.718475376092162e-07,3.00133158617724,2.644141469119824e-07,3,2.646586013314216e-07,3,2.718475376092162e-07,3,2.644141469119824e-07,0,2.646586013314216e-07,0,2.718475376092162e-07,0
2.665927240369188e-07,3.005575393660286,2.667849431532648e-07,2.996887493829003,2.761732481015279e-07,3.002716238516749,2.665927240369188e-07,3,2.667849431532648e-07,3,2.761732481015279e-07,3,2.665927240369188e-07,0,2.667849431532648e-07,0,2.761732481015279e-07,0
2.69519672341695e-07,3.006229922734169,2.695317902994077e-07,3.002969311254835,2.825177269200449e-07,3.002347444815346,2.69519672341695e-07,3,2.695317902994077e-07,3,2.825177269200449e-07,3,2.69519672341695e-07,0,2.695317902994077e-07,0,2.825177269200449e-07,0
2.737428823482719e-07,3.00483147108839,2.732797048590176e-07,3.003852387793532,2.92991795876481e-07,3.001731789630322,2.737428823482719e-07,3,2.732797048590176e-07,3,2.92991795876481e-07,3,2.737428823482719e-07,0,2.732797048590176e-07,0,2.92991795876481e-07,0
2.805554394210035e-07,3.003365620425482,2.78788828097606e-07,3.003127518271113,3.139399337893532e-07,3.000977524480198,2.805554394210035e-07,3,2.78788828097606e-07,3,3.139399337893532e-07,3,2.805554394210035e-07,0,2.78788828097606e-07,0,3.139399337893532e-07,0
2.918799974196253e-07,3.002259501775654,2.879366412304229e-07,3.00228745873792,3.455086662977513e-07,3.000480984740078,2.918799974196253e-07,3,2.879366412304229e-07,3,3.455086662977513e-07,3,2.918799974196253e-07,0,2.879366412304229e-07,0,3.455086662977513e-07,0
3.077754537317713e-07,3.001421237337125,3.047809076115631e-07,3.001395059351886,3.845042650995571e-07,3.000277360896753,3.077754537317713e-07,3,3.047809076115631e-07,3,3.845042650995571e-07,3,3.077754537317713e-07,0,3.047809076115631e-07,0,3.845042650995571e-07,0
3.30758170799805e-07,3.00078019718392,3.294911342561509e-07,3.000742480875891,4.331903184069092e-07,3.000166850430686,3.30758170799805e-07,3,3.294911342561509e-07,3,4.331903184069092e-07,3,3.30758170799805e-07,0,3.294911342561509e-07,0,4.331903184069092e-07,0
3.621087026694727e-07,3.000425525711162,3.629557080521584e-07,3.000387686288545,4.665951592034546e-07,3.000133213884435,3.621087026694727e-07,3,3.629557080521584e-07,3,4.665951592034546e-07,3,3.621087026694727e-07,0,3.629557080521584e-07,0,4.665951592034546e-07,0
4.018700353411562e-07,3.000250094578122,4.038011899539844e-07,3.000238156311503,5e-07,3.000105640754962,4.018700353411562e-07,3,4.038011899539844e-07,3,5e-07,3,4.018700353411562e-07,0,4.038011899539844e-07,0,5e-07,0
4.541295089018021e-07,3.000155681463813,4.57670553313144e-07,3.000142736334112,5.00625e-07,3.48659254557059,4.541295089018021e-07,3,4.57670553313144e-07,3,5.00625e-07,3,4.541295089018021e-07,0,4.57670553313144e-07,0,5.00625e-07,0.7499999999999928
5e-07,3.000115002510771,5e-07,3.000113162148027,5.014456078251275e-07,3.733199131864087,5e-07,3,5e-07,3,5.014456078251275e-07,3,5e-07,0,5e-07,0,5.014456078251275e-07,1.734729390153079
5.00625e-07,3.407513715809672,5.00625e-07,3.452974382344626,5.017092058688457e-07,3.632225710455267,5.00625e-07,3,5.00625e-07,3,5.017092058688457e-07,3,5.00625e-07,0.7499999999999928,5.00625e-07,0.7499999999999928,5.017092058688457e-07,2.051047042614834
